Elapsed Time (s),Frequency (Hz),S11 (dB),S21 (dB),OBJ,Height (m)
0.4530959129333496,1000000000.0,-38.55983573568429,11.854668880422956,YES,1.5
0.8908565044403076,1000000000.0,-48.40907701009756,-2.7254899354515025,YES,1.5
1.3631000518798828,1000000000.0,-49.03107746929795,-0.23023958970572136,YES,1.5
1.8634192943572998,1000000000.0,-49.2945534030667,2.5293750302118867,YES,1.5
2.3128840923309326,1000000000.0,-49.360863111187186,3.3492723946954905,YES,1.5
2.745551347732544,1000000000.0,-48.828407981813655,3.402671030462667,YES,1.5
3.1931726932525635,1000000000.0,-49.633864512304775,2.9311949828186123,YES,1.5
3.7512147426605225,1000000000.0,-49.80483495306298,2.2014578684894173,YES,1.5
4.186981439590454,1000000000.0,-49.237660216863134,1.691147430450032,YES,1.5
4.784227609634399,1000000000.0,-49.143730351549706,1.9909871544924365,YES,1.5
5.256974697113037,1000000000.0,-48.62220033388185,2.3726612229754003,YES,1.5
5.737435340881348,1000000000.0,-49.59581567036718,-0.08859307997208285,YES,1.5
6.195873975753784,1000000000.0,-50.65256042043214,-0.7039529814381961,YES,1.5
6.6759033203125,1000000000.0,-51.192725418886134,-0.8821224674750976,YES,1.5
7.1232750415802,1000000000.0,-50.681401620099095,-0.8443401171180736,YES,1.5
7.652669429779053,1000000000.0,-51.293265829959594,-2.138083523817294,YES,1.5
8.093141078948975,1000000000.0,-51.37059297212784,-1.855034199405966,YES,1.5
8.541487693786621,1000000000.0,-51.37207139847252,0.3718828313026903,YES,1.5
8.986868381500244,1000000000.0,-52.0305900337679,0.5865712969965907,YES,1.5
9.421443700790405,1000000000.0,-49.52384764298803,1.4583781389335155,YES,1.5
9.86588740348816,1000000000.0,-49.333404907878815,1.6710351298910184,YES,1.5
10.30006194114685,1000000000.0,-53.0911506112346,1.4404297859674982,YES,1.5
10.867451906204224,1000000000.0,-53.38775032676021,0.6198072828511826,YES,1.5
11.307278394699097,1000000000.0,-50.15227117458945,-0.12466323733381915,YES,1.5
11.76492977142334,1000000000.0,-50.98722977825017,0.013545705200059339,YES,1.5
12.21578311920166,1000000000.0,-51.10215918553224,0.11008018319887404,YES,1.5
12.725390672683716,1000000000.0,-50.26226420337662,2.0344996740789654,YES,1.5
13.17452359199524,1000000000.0,-51.108930340723106,1.292076756486763,YES,1.5
13.623606204986572,1000000000.0,-51.26605941396048,2.3988200278758365,YES,1.5
14.066896677017212,1000000000.0,-50.16722600297533,2.6001348900242265,YES,1.5
14.502121925354004,1000000000.0,-49.678375623572244,2.086927957553279,YES,1.5
14.979626655578613,1000000000.0,-49.85862593995746,2.1106230497325016,YES,1.5
15.45126223564148,1000000000.0,-49.54560242358049,1.1763091851390446,YES,1.5
15.893305778503418,1000000000.0,-49.30592752794426,1.2422456800069612,YES,1.5
16.35143208503723,1000000000.0,-49.398838860115745,1.018864605974033,YES,1.5
16.800140380859375,1000000000.0,-49.70820164653766,0.040908301720858804,YES,1.5
17.293683290481567,1000000000.0,-49.63047410157919,-0.0510741108244229,YES,1.5
17.763976573944092,1000000000.0,-49.61358056031099,-0.8988223717298943,YES,1.5
18.206000328063965,1000000000.0,-49.40754515172714,-0.9033917168376392,YES,1.5
18.646719932556152,1000000000.0,-49.11929402414679,-1.2924419658138149,YES,1.5
19.081961393356323,1000000000.0,-49.28667466468247,0.21639522848875756,YES,1.5
19.596219301223755,1000000000.0,-49.53635567822925,-0.8015318573366987,YES,1.5
20.098753690719604,1000000000.0,-49.45846282187445,-0.4261478539197284,YES,1.5
20.644932746887207,1000000000.0,-49.68271492767599,-1.1562052630761308,YES,1.5
21.174343824386597,1000000000.0,-49.38754932657319,-0.896081515621231,YES,1.5
21.655567169189453,1000000000.0,-50.11866987458416,-0.8756285504894892,YES,1.5
22.092939615249634,1000000000.0,-50.64089210093037,-1.0991462763743904,YES,1.5
22.673299312591553,1000000000.0,-50.78767173487459,-1.1634910363025934,YES,1.5
23.12843680381775,1000000000.0,-51.225387514599,-1.1268300249654377,YES,1.5
23.580227375030518,1000000000.0,-51.43415984862476,-0.9388473807986298,YES,1.5
24.057990550994873,1000000000.0,-51.13786792331713,-0.6637186158777533,YES,1.5
24.543638229370117,1000000000.0,-51.40146190871124,-0.9462286789878426,YES,1.5
25.018794298171997,1000000000.0,-52.09049538277889,-1.2054718543759249,YES,1.5
25.54310917854309,1000000000.0,-53.285955644287704,-1.139945354642253,YES,1.5
26.059181690216064,1000000000.0,-53.08108766298905,-1.1235876354043197,YES,1.5
26.51893711090088,1000000000.0,-52.908436245866795,-1.1102242301637768,YES,1.5
27.023858308792114,1000000000.0,-54.145163516607795,-1.3571305578392854,YES,1.5
27.49496054649353,1000000000.0,-54.03151993186778,-0.8126289125105525,YES,1.5
28.087140321731567,1000000000.0,-54.03221701445986,-0.6639117910090208,YES,1.5
28.53964591026306,1000000000.0,-52.85074141264211,-0.7883307044857156,YES,1.5
29.009042739868164,1000000000.0,-51.06528906414645,0.954864811171767,YES,1.5
29.510287761688232,1000000000.0,-50.342243978412746,1.6933916105483338,YES,1.5
29.962098836898804,1000000000.0,-50.24504337183487,2.1608818864771635,YES,1.5
30.461499214172363,1000000000.0,-49.55452539558179,1.610355070613506,YES,1.5
30.89711022377014,1000000000.0,-49.69958816834682,1.6484055571781124,YES,1.5
31.330013513565063,1000000000.0,-49.912972975458004,1.6442503541449562,YES,1.5
31.758480072021484,1000000000.0,-53.40964121724876,1.6050931032469273,YES,1.5
32.204432010650635,1000000000.0,-51.56320174771216,0.8894590415360533,YES,1.5
32.752140522003174,1000000000.0,-50.664768590483156,-1.4118971696650329,YES,1.5
33.181753635406494,1000000000.0,-48.939940598975355,1.367956449752477,YES,1.5
33.657413482666016,1000000000.0,-48.934362518783566,-0.7285191199235128,YES,1.5
34.12199521064758,1000000000.0,-49.71963095666388,-2.812616939293751,YES,1.5
34.55719017982483,1000000000.0,-49.93634942900461,-2.3451114551218204,YES,1.5
35.037885665893555,1000000000.0,-49.68657976553783,-3.108036162223736,YES,1.5
35.48249793052673,1000000000.0,-49.22445158165459,-4.218940932075258,YES,1.5
35.91766428947449,1000000000.0,-48.74666915765588,-2.3930007122119887,YES,1.5
36.367494344711304,1000000000.0,-49.48476482406054,-2.9366639534544285,YES,1.5
36.81237554550171,1000000000.0,-49.597145514175736,-4.958544924813889,YES,1.5
37.32389760017395,1000000000.0,-49.5838661021158,-6.487687805683531,YES,1.5
37.78448677062988,1000000000.0,-49.59817529857424,-7.707914072037157,YES,1.5
38.27865195274353,1000000000.0,-48.403508882401084,-11.265591914462565,YES,1.5
38.72633671760559,1000000000.0,-49.8687602092921,-5.236639182507141,YES,1.5
39.1791205406189,1000000000.0,-49.70434949447983,-4.85790396625051,YES,1.5
39.619524002075195,1000000000.0,-48.0878075486223,-3.5403722818126275,YES,1.5
40.101988554000854,1000000000.0,-47.52464179475559,-2.396190397253854,YES,1.5
40.54421305656433,1000000000.0,-47.40259006379244,3.91232803341434,YES,1.5
40.97914218902588,1000000000.0,-47.31828439434299,5.462820365453723,YES,1.5
41.435829639434814,1000000000.0,-47.054730071513184,6.068098805178581,YES,1.5
41.88807654380798,1000000000.0,-47.087528858359036,6.348067196402245,YES,1.5
42.33659911155701,1000000000.0,-46.98509727413266,5.823097924476511,YES,1.5
42.77390193939209,1000000000.0,-46.93576867952861,5.970424311005289,YES,1.5
43.20704770088196,1000000000.0,-46.96062178534737,4.653594297199632,YES,1.5
43.65714979171753,1000000000.0,-46.52313426214551,3.0237053768107836,YES,1.5
44.097960472106934,1000000000.0,-46.52378305758507,4.4049475798102025,YES,1.5
44.54264283180237,1000000000.0,-47.08533774904521,4.228142405220473,YES,1.5
44.99291229248047,1000000000.0,-46.79513928812315,4.739891243470037,YES,1.5
45.44020938873291,1000000000.0,-46.44554372634449,6.738650326166584,YES,1.5
45.89565706253052,1000000000.0,-46.559031898107165,8.523007297425709,YES,1.5
46.33928370475769,1000000000.0,-46.623034019039736,9.743558719893146,YES,1.5
46.90594696998596,1000000000.0,-46.95964560769375,9.610356487964664,YES,1.5
47.35030007362366,1000000000.0,-46.7777171764697,9.325126500766503,YES,1.5
47.79980707168579,1000000000.0,-46.81270643736704,9.209516348873294,YES,1.5
48.246602058410645,1000000000.0,-46.567176126655845,9.216291719513453,YES,1.5
48.68729496002197,1000000000.0,-46.739549520080445,8.498946316959774,YES,1.5
49.13079380989075,1000000000.0,-46.981948587897016,7.590798519712596,YES,1.5
49.576396465301514,1000000000.0,-47.309789892920236,7.346691285291508,YES,1.5
50.0167555809021,1000000000.0,-47.50452987247091,7.302811023140299,YES,1.5
50.457404375076294,1000000000.0,-47.86605251188974,7.066419137595137,YES,1.5
50.902892112731934,1000000000.0,-47.57008409263706,7.10560934758659,YES,1.5
51.33626961708069,1000000000.0,-47.49498744775957,7.125976922919129,YES,1.5
51.77580499649048,1000000000.0,-47.5724159863234,6.236729033180484,YES,1.5
52.22054100036621,1000000000.0,-47.49834036057048,5.293731038336153,YES,1.5
52.83188605308533,1000000000.0,-48.016062715558334,4.79075773243178,YES,1.5
53.28580331802368,1000000000.0,-47.71141156548082,5.175618472721222,YES,1.5
53.740025758743286,1000000000.0,-47.600032781816665,4.742802083256501,YES,1.5
54.16736626625061,1000000000.0,-47.24264329604121,4.659748205867307,YES,1.5
54.64776563644409,1000000000.0,-47.084206830609205,5.1744790666438405,YES,1.5
55.0854275226593,1000000000.0,-46.87919000886676,4.950377850144536,YES,1.5
55.62437891960144,1000000000.0,-46.988070509528306,3.773340549173521,YES,1.5
56.06590723991394,1000000000.0,-47.024450234162444,3.8399196290994624,YES,1.5
56.51282858848572,1000000000.0,-46.42202279864974,3.7500393435242168,YES,1.5
56.94321584701538,1000000000.0,-46.67695579040333,2.3667312114642307,YES,1.5
57.38913154602051,1000000000.0,-47.1365950733786,1.7391246868832322,YES,1.5
57.95687532424927,1000000000.0,-47.232179563060264,2.562268818504952,YES,1.5
58.39371395111084,1000000000.0,-47.28000262446648,2.6920115285281443,YES,1.5
58.83774542808533,1000000000.0,-46.90099319898984,3.234741639292645,YES,1.5
59.278114795684814,1000000000.0,-46.950175281429495,4.420835049654082,YES,1.5
59.74250245094299,1000000000.0,-46.97151816667674,4.144619305616483,YES,1.5
60.20122027397156,1000000000.0,-47.511134443380584,3.371199253048574,YES,1.5
60.64592528343201,1000000000.0,-47.70888941077273,2.8040404691341925,YES,1.5
61.087327003479004,1000000000.0,-47.90398609758156,2.336836040766231,YES,1.5
61.52532935142517,1000000000.0,-48.74235733695382,2.1014896632678775,YES,1.5
61.96051216125488,1000000000.0,-49.574289253490136,2.170842931048188,YES,1.5
62.40629243850708,1000000000.0,-50.24721488154928,1.5693399132453427,YES,1.5
62.87299156188965,1000000000.0,-51.25543784756285,2.031345957298194,YES,1.5
63.43966627120972,1000000000.0,-53.43357193410475,1.8076137086041415,YES,1.5
63.89941048622131,1000000000.0,-51.669203376965854,2.2457952266973034,YES,1.5
64.46440172195435,1000000000.0,-53.44400359270615,3.4652821163276117,YES,1.5
65.04440879821777,1000000000.0,-52.93575460712141,3.673684738331455,YES,1.5
65.49831414222717,1000000000.0,-52.97385808202796,3.9182216439386,YES,1.5
65.93057322502136,1000000000.0,-53.7859558850395,4.047893222135349,YES,1.5
66.37336373329163,1000000000.0,-54.692241565483,3.423232373852269,YES,1.5
66.81839656829834,1000000000.0,-54.20445438827312,4.5615970309090805,YES,1.5
67.26696610450745,1000000000.0,-53.85362139194285,3.6280726114462314,YES,1.5
67.71897029876709,1000000000.0,-53.224051495825975,2.5554289126224923,YES,1.5
68.15924501419067,1000000000.0,-55.85971646988697,3.954997135839366,YES,1.5
68.609126329422,1000000000.0,-52.209861021225066,3.0426830826464055,YES,1.5
69.06196618080139,1000000000.0,-54.054706750232825,3.472739225883113,YES,1.5
69.50814652442932,1000000000.0,-51.39441285704635,3.481472903416547,YES,1.5
69.95026683807373,1000000000.0,-51.78200353895424,4.191999062710769,YES,1.5
70.38917541503906,1000000000.0,-50.838329152644164,3.935574313631296,YES,1.5
70.83524060249329,1000000000.0,-55.97851887132832,3.8715954467189224,YES,1.5
71.31194543838501,1000000000.0,-59.35168446894473,2.171022970723919,YES,1.5
71.75476717948914,1000000000.0,-59.684752263306464,0.7972440509956403,YES,1.5
72.20940232276917,1000000000.0,-55.509742918484626,-4.108707457814807,YES,1.5
72.6592161655426,1000000000.0,-45.64113036373521,1.4348310975477068,YES,1.5
73.12562894821167,1000000000.0,-43.89474851377629,1.755894132639833,YES,1.5
73.60451102256775,1000000000.0,-43.32740081453373,2.8791168595586796,YES,1.5
74.0911374092102,1000000000.0,-42.95520186197717,1.9073605473476973,YES,1.5
74.52346706390381,1000000000.0,-44.81603423730351,-8.748736348133114,YES,1.5
74.96952867507935,1000000000.0,-46.70243139606313,-7.123393426642953,YES,1.5
75.41448760032654,1000000000.0,-47.2032618846786,-7.133521953316505,YES,1.5
75.8569598197937,1000000000.0,-42.88151910293304,-1.6064462049089787,YES,1.5
76.30916547775269,1000000000.0,-48.15719090037546,1.2785908935669719,YES,1.5
76.75589537620544,1000000000.0,-47.142589957167765,0.4154460572346803,YES,1.5
77.19480323791504,1000000000.0,-49.49292500169915,3.8224053792888775,YES,1.5
77.65820693969727,1000000000.0,-49.35044096026061,1.7794658901327236,YES,1.5
78.10599422454834,1000000000.0,-51.27816334604951,-15.44729880780567,YES,1.5
78.55038928985596,1000000000.0,-54.211236444466486,-9.238147888428525,YES,1.5
78.99971461296082,1000000000.0,-65.02847294947078,-6.096349726006008,YES,1.5
79.44806146621704,1000000000.0,-51.22172438916975,-8.154226732831502,YES,1.5
79.8914692401886,1000000000.0,-51.53618823706055,-7.317221756577313,YES,1.5
80.36614680290222,1000000000.0,-52.43116325305206,-2.4807755402945686,YES,1.5
80.83834314346313,1000000000.0,-52.24714753531758,-8.954996241796971,YES,1.5
81.28910040855408,1000000000.0,-50.01549896274081,-2.5056983201818745,YES,1.5
81.73807096481323,1000000000.0,-48.21931184922973,-9.353869723257935,YES,1.5
82.1937894821167,1000000000.0,-46.213647402958415,-21.84537613702971,YES,1.5
82.63620185852051,1000000000.0,-47.022088120194624,-14.42093033704511,YES,1.5
83.08209824562073,1000000000.0,-50.40882922268426,-4.9334421144851826,YES,1.5
83.52320146560669,1000000000.0,-55.978131161747704,-1.9300028902834905,YES,1.5
83.97197794914246,1000000000.0,-58.986400286022715,-0.037794782941021975,YES,1.5
84.41725540161133,1000000000.0,-60.398807248209195,-0.10975811679635489,YES,1.5
84.85958290100098,1000000000.0,-62.50781557245738,-0.47849568636702705,YES,1.5
85.33415508270264,1000000000.0,-59.1051325813864,-2.7433789357696217,YES,1.5
85.77904462814331,1000000000.0,-55.689144976690905,-2.970152263380204,YES,1.5
86.22256588935852,1000000000.0,-61.025629097524345,-9.354768494111937,YES,1.5
86.65909552574158,1000000000.0,-61.02885418848308,-7.839312659145649,YES,1.5
87.09412980079651,1000000000.0,-55.81774442473475,-9.369353908526366,YES,1.5
87.58080720901489,1000000000.0,-53.71865526125151,-4.7878282305155615,YES,1.5
88.0355339050293,1000000000.0,-55.555472830345536,-4.456800377066966,YES,1.5
88.4972152709961,1000000000.0,-55.2472861034403,-4.346757045243227,YES,1.5
88.92989778518677,1000000000.0,-53.60908513039681,-4.331493870302123,YES,1.5
89.37601327896118,1000000000.0,-53.37146458293046,-3.226235564187126,YES,1.5
89.82004165649414,1000000000.0,-52.34528479202267,-3.8928671543237288,YES,1.5
90.28308248519897,1000000000.0,-50.06106358651469,-5.444899733985306,YES,1.5
90.73051404953003,1000000000.0,-55.153196590270056,-8.91692200244272,YES,1.5
91.16635298728943,1000000000.0,-62.42916004579332,-11.253291308269835,YES,1.5
91.60883331298828,1000000000.0,-62.76850848677523,-10.057150560030037,YES,1.5
92.05502009391785,1000000000.0,-62.54636954672971,-9.67549586114979,YES,1.5
92.54783892631531,1000000000.0,-59.989217361599344,-12.046024489526042,YES,1.5
92.99184775352478,1000000000.0,-59.697987990303936,-15.596903907006073,YES,1.5
93.43016123771667,1000000000.0,-58.88714738740788,-21.538706806415124,YES,1.5
93.8726077079773,1000000000.0,-60.334165903203356,-26.275621678194096,YES,1.5
94.30587100982666,1000000000.0,-61.85817830761623,-26.286868760830142,YES,1.5
94.743479013443,1000000000.0,-58.80315282970106,-22.50986145999557,YES,1.5
95.17691922187805,1000000000.0,-55.59978918897568,-22.327624568885778,YES,1.5
95.62485718727112,1000000000.0,-54.056197196415674,-20.759362384056104,YES,1.5
96.07191491127014,1000000000.0,-54.09833897727693,-29.795046138636714,YES,1.5
96.50754976272583,1000000000.0,-53.24608319845606,-20.331178616369897,YES,1.5
96.94932699203491,1000000000.0,-53.57405972927243,-12.432582984817328,YES,1.5
97.6113531589508,1000000000.0,-53.781518927671726,-11.38409828845004,YES,1.5
98.050785779953,1000000000.0,-53.73570180986615,-14.616318352043546,YES,1.5
98.49578738212585,1000000000.0,-54.156277381860455,-12.616191101947795,YES,1.5
98.94080686569214,1000000000.0,-53.27445182917116,-12.592482676177726,YES,1.5
99.40908455848694,1000000000.0,-52.32853014922316,-13.888332676753365,YES,1.5
99.93052434921265,1000000000.0,-52.39990460524577,-15.933642404057885,YES,1.5
100.37411189079285,1000000000.0,-51.390132291870636,-13.498465534983435,YES,1.5
100.81688356399536,1000000000.0,-51.98064860002561,-13.616197705347375,YES,1.5
101.26897954940796,1000000000.0,-52.17270638174037,-13.158908688475307,YES,1.5
101.75117635726929,1000000000.0,-53.16113104963062,-11.375940740897539,YES,1.5
102.33849811553955,1000000000.0,-52.391445986951126,-12.673035488206516,YES,1.5
102.77582478523254,1000000000.0,-51.850325118778116,-11.349187980206224,YES,1.5
103.217520236969,1000000000.0,-51.7336067084209,-12.340746991889567,YES,1.5
103.66285228729248,1000000000.0,-53.429913481247254,-12.563710095785023,YES,1.5
104.10613250732422,1000000000.0,-52.07037115283103,-12.005332857508346,YES,1.5
104.56840586662292,1000000000.0,-52.65872361655957,-10.977529729445237,YES,1.5
105.00239777565002,1000000000.0,-53.2880646598592,-9.106247101607764,YES,1.5
105.44612193107605,1000000000.0,-56.13544083760671,-5.454846879582939,YES,1.5
105.9699854850769,1000000000.0,-57.26605583714388,-4.3357464253535065,YES,1.5
106.41490340232849,1000000000.0,-59.152834760540316,-3.511115195618175,YES,1.5
106.87015223503113,1000000000.0,-61.482450507352226,-2.4072966582701585,YES,1.5
107.3247880935669,1000000000.0,-59.54430304182467,-3.1161629926973426,YES,1.5
107.76848983764648,1000000000.0,-59.32979575739463,-3.54781858511398,YES,1.5
108.20798254013062,1000000000.0,-59.829166709041985,-3.52819886219683,YES,1.5
108.6747875213623,1000000000.0,-58.28876088853185,-5.311206868168366,YES,1.5
109.1227331161499,1000000000.0,-61.01130062405079,-6.27104078196199,YES,1.5
109.57131910324097,1000000000.0,-59.36813709033467,-5.809677179026803,YES,1.5
110.00761485099792,1000000000.0,-59.61433167170479,-3.438559749312451,YES,1.5
110.45711135864258,1000000000.0,-59.77614425736433,-3.1077135061040657,YES,1.5
110.94308495521545,1000000000.0,-59.24632211722183,-1.7923706164990503,YES,1.5
111.44282555580139,1000000000.0,-59.42768107172397,-4.315885635819238,YES,1.5
111.92160391807556,1000000000.0,-62.03132993915005,-4.008927798989593,YES,1.5
112.36772680282593,1000000000.0,-61.42867025414047,-5.860218635650303,YES,1.5
112.82345032691956,1000000000.0,-63.9401507660451,-4.410506566953153,YES,1.5
113.27807593345642,1000000000.0,-63.11241020204494,-5.828511921250142,YES,1.5
113.72534489631653,1000000000.0,-60.48800337773524,-6.533680249616916,YES,1.5
114.19105339050293,1000000000.0,-61.33308615406627,-6.756908178528366,YES,1.5
114.7598819732666,1000000000.0,-61.441605090551974,-6.5329437867265145,YES,1.5
115.2139720916748,1000000000.0,-62.4127129358228,-5.713517727965286,YES,1.5
115.64794301986694,1000000000.0,-61.01574640586261,-5.484455615705146,YES,1.5
116.11097311973572,1000000000.0,-59.44050058220179,-7.005047860811857,YES,1.5
116.54720377922058,1000000000.0,-60.15279870781875,-7.2049533392797365,YES,1.5
117.11783027648926,1000000000.0,-62.02832810298343,-5.723033979652151,YES,1.5
117.56693267822266,1000000000.0,-58.7287052372873,-8.501080890202479,YES,1.5
118.04966259002686,1000000000.0,-58.569305413329104,-7.452481846975649,YES,1.5
118.48958206176758,1000000000.0,-62.433492015719345,-4.954137353000223,YES,1.5
118.93239045143127,1000000000.0,-59.776534417884946,-6.423569595239359,YES,1.5
