Elapsed Time (s),Frequency (Hz),S11 (dB),S21 (dB),OBJ,Height (m)
0.5598609447479248,1000000000.0,-52.145909238285824,9.339344736662873,NO,1.1
1.113405704498291,1000000000.0,-52.182090624113556,9.3419011791893,NO,1.1
1.7163710594177246,1000000000.0,-51.97067010772752,9.354102782871005,NO,1.1
2.2155892848968506,1000000000.0,-52.05743887982091,9.346988812389004,NO,1.1
2.7010743618011475,1000000000.0,-51.93873746868906,9.30235816831918,NO,1.1
3.1404802799224854,1000000000.0,-51.917025508643704,9.301928194961633,NO,1.1
3.5872888565063477,1000000000.0,-51.89559059894685,9.322721412271548,NO,1.1
4.030437231063843,1000000000.0,-52.00381952015455,9.371570460011737,NO,1.1
4.577911376953125,1000000000.0,-52.161360954230005,9.368091529185014,NO,1.1
5.072710990905762,1000000000.0,-52.058228498994964,9.337934795717358,NO,1.1
5.609905481338501,1000000000.0,-51.950121501420476,9.3393719707393,NO,1.1
6.223535537719727,1000000000.0,-51.75293731735006,9.33586308795298,NO,1.1
6.856889009475708,1000000000.0,-51.591003320698015,9.31044436339615,NO,1.1
7.318916082382202,1000000000.0,-51.7723759986893,9.276035141818266,NO,1.1
7.8002119064331055,1000000000.0,-51.13955324975461,9.264615884067856,NO,1.1
8.263200044631958,1000000000.0,-50.768229384137065,9.257846782822007,NO,1.1
8.718342542648315,1000000000.0,-50.931761702889176,9.239648126782702,NO,1.1
9.214650630950928,1000000000.0,-51.11893915643918,9.24900809323448,NO,1.1
9.667989730834961,1000000000.0,-51.26638844887938,9.218268564342544,NO,1.1
10.15311861038208,1000000000.0,-51.639158382243465,9.251215566800877,NO,1.1
10.616373777389526,1000000000.0,-51.57777956580151,9.211295853601978,NO,1.1
11.132883548736572,1000000000.0,-51.456384439477354,9.36741620580364,NO,1.1
11.585099458694458,1000000000.0,-51.44090513331535,9.689540787452591,NO,1.1
12.0450439453125,1000000000.0,-51.23332225215489,9.737972191085372,NO,1.1
12.504939794540405,1000000000.0,-51.23823391039576,9.71232683140838,NO,1.1
13.037665367126465,1000000000.0,-51.27328699566011,9.678991766804508,NO,1.1
13.510079145431519,1000000000.0,-51.030848466538416,9.731685788124057,NO,1.1
14.008770227432251,1000000000.0,-50.66362606948826,9.67137073046689,NO,1.1
14.50122618675232,1000000000.0,-52.068794543416885,9.734121631863557,NO,1.1
14.970752954483032,1000000000.0,-52.74100905680078,9.724422442715861,NO,1.1
15.461891889572144,1000000000.0,-51.674886949830714,9.668068401218369,NO,1.1
15.988019466400146,1000000000.0,-52.074969433394784,9.654992495432182,NO,1.1
16.469359159469604,1000000000.0,-50.37709083772416,9.606236262603515,NO,1.1
16.934972524642944,1000000000.0,-50.62171429587704,9.093809627591583,NO,1.1
17.400221824645996,1000000000.0,-51.097662359953745,9.450141602546722,NO,1.1
17.85356831550598,1000000000.0,-50.81864988015222,8.88354854961779,NO,1.1
18.336764097213745,1000000000.0,-51.69308091935627,8.977805182526495,NO,1.1
18.79420304298401,1000000000.0,-52.16395728939603,9.274570415553166,NO,1.1
19.262707471847534,1000000000.0,-52.22965160487458,8.981718284864579,NO,1.1
19.719852685928345,1000000000.0,-51.27271954931728,9.634401522754235,NO,1.1
20.25309181213379,1000000000.0,-51.573578120351904,9.722106639587246,NO,1.1
20.700211763381958,1000000000.0,-51.25990956888292,9.732318205252874,NO,1.1
21.18241310119629,1000000000.0,-51.441365482826676,9.688331981803657,NO,1.1
21.647218942642212,1000000000.0,-51.58736807140166,9.703043580782964,NO,1.1
22.15068745613098,1000000000.0,-51.49941989961499,9.705281691342053,NO,1.1
22.706222772598267,1000000000.0,-51.238636239396854,9.735960170531694,NO,1.1
23.249114274978638,1000000000.0,-51.52294831395831,9.700984613307128,NO,1.1
23.72411870956421,1000000000.0,-51.35239801049756,9.695439371369119,NO,1.1
24.20165514945984,1000000000.0,-51.22665246568994,9.677915045776192,NO,1.1
24.671422719955444,1000000000.0,-51.295085491155056,9.684586392812548,NO,1.1
25.13692045211792,1000000000.0,-51.28954601576026,9.641039331967274,NO,1.1
25.596046924591064,1000000000.0,-51.23495355139691,9.615776593811475,NO,1.1
26.060415029525757,1000000000.0,-51.24823557419806,9.589549259876511,NO,1.1
26.5105242729187,1000000000.0,-51.35905735185376,9.270670215154766,NO,1.1
26.989193201065063,1000000000.0,-51.41292873024052,9.224468284579853,NO,1.1
27.480427503585815,1000000000.0,-51.38075052204477,9.213152000514775,NO,1.1
28.004521131515503,1000000000.0,-51.17664927893824,9.242021760110937,NO,1.1
28.544495820999146,1000000000.0,-51.27568937024654,9.08410270891437,NO,1.1
29.003400564193726,1000000000.0,-51.78276823883236,9.207984497061506,NO,1.1
29.486302614212036,1000000000.0,-51.49666141345719,9.203639075443855,NO,1.1
29.991040229797363,1000000000.0,-51.72871947417966,9.164784993841067,NO,1.1
30.544093370437622,1000000000.0,-51.48663610915073,9.220495091222281,NO,1.1
31.030384063720703,1000000000.0,-51.29824469573157,9.189814890024778,NO,1.1
31.6043963432312,1000000000.0,-51.42564154117422,9.246934683973791,NO,1.1
32.11502146720886,1000000000.0,-51.41177568627168,9.19063556716557,NO,1.1
32.67723035812378,1000000000.0,-50.71462925124193,9.179141322530484,NO,1.1
33.13896822929382,1000000000.0,-51.327703460579066,9.166313230519032,NO,1.1
33.644465923309326,1000000000.0,-51.76432919900256,9.165919438303462,NO,1.1
34.20083665847778,1000000000.0,-51.625070835773414,9.19600836911777,NO,1.1
34.663135290145874,1000000000.0,-51.3033348642385,9.253703890769312,NO,1.1
35.12356877326965,1000000000.0,-51.171790477558346,9.192262611522127,NO,1.1
35.59932494163513,1000000000.0,-51.322811926956845,9.17738532085278,NO,1.1
36.0743682384491,1000000000.0,-51.75392126942103,9.017632956792317,NO,1.1
36.519455909729004,1000000000.0,-51.47319603570083,9.17484793032536,NO,1.1
36.980284690856934,1000000000.0,-51.336242887049735,9.228388922311,NO,1.1
37.43916940689087,1000000000.0,-51.51709973531956,9.181130529071604,NO,1.1
37.95990514755249,1000000000.0,-51.436947003393314,9.209198420472974,NO,1.1
38.41018557548523,1000000000.0,-51.326826528584235,9.197334355574027,NO,1.1
38.86995840072632,1000000000.0,-51.48952064839915,9.167174319614473,NO,1.1
39.38629460334778,1000000000.0,-51.49374531608668,9.201509520379789,NO,1.1
39.84919476509094,1000000000.0,-51.435271967491296,9.18006554210964,NO,1.1
40.29513597488403,1000000000.0,-51.51389405459537,9.201180715308261,NO,1.1
40.816062211990356,1000000000.0,-51.33034214315663,9.215450283412384,NO,1.1
41.40281653404236,1000000000.0,-51.425940044580344,9.187474362679643,NO,1.1
41.99011778831482,1000000000.0,-51.54341511116029,9.197575916488297,NO,1.1
42.44822812080383,1000000000.0,-51.37436175101767,9.19919946808508,NO,1.1
42.90418314933777,1000000000.0,-51.520063038189946,9.198069436604325,NO,1.1
43.41245079040527,1000000000.0,-51.36266827542766,9.217528602913047,NO,1.1
43.88703727722168,1000000000.0,-51.33802136436621,9.180681945754275,NO,1.1
44.337140798568726,1000000000.0,-51.32311454896751,9.236562743204988,NO,1.1
44.81247162818909,1000000000.0,-51.46686720548787,9.213317415282331,NO,1.1
45.39580965042114,1000000000.0,-51.486313495323365,9.205422334397241,NO,1.1
45.854562759399414,1000000000.0,-51.47699677945095,9.25096662703554,NO,1.1
46.31243085861206,1000000000.0,-51.39918926919411,9.209456540062904,NO,1.1
46.78173899650574,1000000000.0,-51.32619704072429,9.205344777464152,NO,1.1
47.22117733955383,1000000000.0,-51.45183323222153,9.195440932608314,NO,1.1
47.69771456718445,1000000000.0,-51.34503362351532,9.183424269078264,NO,1.1
48.162229776382446,1000000000.0,-51.31120256846689,9.201754203199974,NO,1.1
48.729392766952515,1000000000.0,-51.37658602286222,9.201655313678279,NO,1.1
49.1833221912384,1000000000.0,-51.29419778517654,9.200655710556742,NO,1.1
49.654990911483765,1000000000.0,-51.28727206415829,9.181401999781558,NO,1.1
50.23769187927246,1000000000.0,-51.466591497099,9.204461319182197,NO,1.1
50.71578931808472,1000000000.0,-51.48212879894946,9.200661408230152,NO,1.1
51.1717689037323,1000000000.0,-51.49802411137998,9.207062503665716,NO,1.1
51.626752853393555,1000000000.0,-51.578880257126194,9.193254076276471,NO,1.1
52.12766408920288,1000000000.0,-51.517125057819875,9.228599997719451,NO,1.1
52.587727069854736,1000000000.0,-51.52959627398084,9.205286009513296,NO,1.1
53.03971719741821,1000000000.0,-51.39831998548489,9.19107329701294,NO,1.1
53.62559676170349,1000000000.0,-51.42804837957034,9.190980852228403,NO,1.1
54.108230113983154,1000000000.0,-51.549483303010575,9.189708703113999,NO,1.1
54.56706094741821,1000000000.0,-51.410255199156786,9.188270272721573,NO,1.1
55.12151527404785,1000000000.0,-51.35093493689088,9.21237276897865,NO,1.1
55.72782278060913,1000000000.0,-51.427980214908054,9.200114199596005,NO,1.1
56.17973613739014,1000000000.0,-51.36597798469704,9.241589958374309,NO,1.1
56.71398138999939,1000000000.0,-51.399874973403115,9.172377916471335,NO,1.1
57.297922134399414,1000000000.0,-51.37218566613348,9.157626573640158,NO,1.1
57.758702754974365,1000000000.0,-51.38629037881003,9.134552973700107,NO,1.1
58.24147701263428,1000000000.0,-51.431097177660064,9.13086049348163,NO,1.1
58.83611845970154,1000000000.0,-51.39102327594759,9.168380226099917,NO,1.1
59.28314995765686,1000000000.0,-51.37406320291498,9.18491331355465,NO,1.1
59.72108483314514,1000000000.0,-51.44612293012946,9.19046048320231,NO,1.1
60.17073678970337,1000000000.0,-51.41321921064841,9.184710277431682,NO,1.1
60.653496980667114,1000000000.0,-51.51240259196159,9.204802367512338,NO,1.1
61.13197922706604,1000000000.0,-51.280525840704854,9.17354313001168,NO,1.1
61.65572428703308,1000000000.0,-51.34964414844397,9.219132258456256,NO,1.1
62.12136101722717,1000000000.0,-51.51429754255156,9.181485533028678,NO,1.1
62.58288311958313,1000000000.0,-51.39749083976328,9.206589088590775,NO,1.1
63.032304763793945,1000000000.0,-51.492263991459126,9.206673287359951,NO,1.1
63.50599813461304,1000000000.0,-51.476030048117394,9.19848116739572,NO,1.1
63.96988320350647,1000000000.0,-51.43859420594565,9.197416556734074,NO,1.1
64.44123101234436,1000000000.0,-51.64338883353503,9.189085554097355,NO,1.1
64.89030766487122,1000000000.0,-51.42245057501566,9.205262698055394,NO,1.1
65.41213917732239,1000000000.0,-51.404844245188585,9.205552556934261,NO,1.1
65.88204264640808,1000000000.0,-51.331279483908894,9.201444997049595,NO,1.1
66.33562517166138,1000000000.0,-51.50526348170253,9.187812674795081,NO,1.1
66.88838624954224,1000000000.0,-51.5127637521021,9.199625094400698,NO,1.1
67.37935185432434,1000000000.0,-51.41110195476844,9.195433816199722,NO,1.1
67.87116432189941,1000000000.0,-51.38376559870498,9.195737173946714,NO,1.1
68.34552192687988,1000000000.0,-51.50646107928652,9.203151979890468,NO,1.1
68.81915330886841,1000000000.0,-51.50400005912816,9.198096858282813,NO,1.1
69.2964198589325,1000000000.0,-51.531410545662276,9.197898082394664,NO,1.1
69.74358129501343,1000000000.0,-51.41580216368971,9.203686266758762,NO,1.1
70.1912567615509,1000000000.0,-51.36615976885998,9.196695518197487,NO,1.1
70.69807505607605,1000000000.0,-51.447433391907644,9.204435918842387,NO,1.1
71.16938638687134,1000000000.0,-51.33463519622176,9.195406797281752,NO,1.1
71.61813688278198,1000000000.0,-51.35207492740237,9.181312995908925,NO,1.1
72.10620832443237,1000000000.0,-51.41019555956569,9.18928390414298,NO,1.1
72.5686137676239,1000000000.0,-51.40650992935171,9.192171153820713,NO,1.1
73.0262930393219,1000000000.0,-51.45038969873494,9.194390201506636,NO,1.1
73.47618079185486,1000000000.0,-51.37253656005623,9.188561750593838,NO,1.1
73.95393943786621,1000000000.0,-51.47759059892895,9.196879895128452,NO,1.1
74.4521837234497,1000000000.0,-51.39657488225673,9.194946276629139,NO,1.1
74.91854548454285,1000000000.0,-51.44850585325416,9.198167703731198,NO,1.1
75.44517612457275,1000000000.0,-51.53669900400524,9.19010565261493,NO,1.1
75.95900750160217,1000000000.0,-51.40735066328581,9.201487809045283,NO,1.1
76.48640704154968,1000000000.0,-51.44526637351423,9.189334984067548,NO,1.1
77.03906774520874,1000000000.0,-51.41556242473339,9.191717218782847,NO,1.1
77.49582600593567,1000000000.0,-51.321771032653494,9.193447974354731,NO,1.1
77.97985219955444,1000000000.0,-51.460266027910805,9.195830648560746,NO,1.1
78.42110586166382,1000000000.0,-51.44517032743287,9.192665581494822,NO,1.1
78.8942244052887,1000000000.0,-51.31970016614835,9.193642740694319,NO,1.1
79.44267988204956,1000000000.0,-51.43127902616676,9.189738563349197,NO,1.1
79.88566565513611,1000000000.0,-51.34699744068543,9.194472558157166,NO,1.1
80.35825729370117,1000000000.0,-51.40608996445408,9.197233463917803,NO,1.1
80.84659051895142,1000000000.0,-51.40352881064838,9.187939871470196,NO,1.1
81.29963159561157,1000000000.0,-51.3803714969072,9.19622408649365,NO,1.1
81.78399968147278,1000000000.0,-51.5346927638939,9.196669739109971,NO,1.1
82.29618883132935,1000000000.0,-51.45953743354397,9.191302853773808,NO,1.1
82.75434517860413,1000000000.0,-51.4288616595887,9.188685232944005,NO,1.1
83.23184132575989,1000000000.0,-51.499966241466,9.184859445601003,NO,1.1
83.69175124168396,1000000000.0,-51.41133148496655,9.188423535632783,NO,1.1
84.14257907867432,1000000000.0,-51.59505340025406,9.192487848652803,NO,1.1
84.75863409042358,1000000000.0,-51.50952875495744,9.193023038590448,NO,1.1
85.26351499557495,1000000000.0,-51.4053879421487,9.18716469567352,NO,1.1
85.72434115409851,1000000000.0,-51.427556443306344,9.187794043581572,NO,1.1
86.28757667541504,1000000000.0,-51.47358690162676,9.198342774690458,NO,1.1
86.74585223197937,1000000000.0,-51.35337248219913,9.187803236614817,NO,1.1
87.20629000663757,1000000000.0,-51.49729267590628,9.193102450817442,NO,1.1
87.66680312156677,1000000000.0,-51.45688422898034,9.185735083693775,NO,1.1
88.11263847351074,1000000000.0,-51.59179501891296,9.180344169333425,NO,1.1
88.59843373298645,1000000000.0,-51.384777521974634,9.187233693273924,NO,1.1
89.04945731163025,1000000000.0,-51.43031690704015,9.184316166035835,NO,1.1
89.64415955543518,1000000000.0,-51.42824701870863,9.18196489518851,NO,1.1
90.10819482803345,1000000000.0,-51.309357870896235,9.183053589978268,NO,1.1
90.5999014377594,1000000000.0,-51.49704008475904,9.183990507178766,NO,1.1
91.10289072990417,1000000000.0,-51.378553920643725,9.18752311875781,NO,1.1
91.61975049972534,1000000000.0,-51.44968953011889,9.187881803136023,NO,1.1
92.07160210609436,1000000000.0,-51.545220495870545,9.192910189616864,NO,1.1
92.53217506408691,1000000000.0,-51.43972441546711,9.193012491244424,NO,1.1
93.0984890460968,1000000000.0,-51.45665148883207,9.18221246365793,NO,1.1
93.57311272621155,1000000000.0,-51.53176585384796,9.184769128073505,NO,1.1
94.06625962257385,1000000000.0,-51.324294800134936,9.191178635697138,NO,1.1
94.65833520889282,1000000000.0,-51.36892574948191,9.180138133237604,NO,1.1
95.11372900009155,1000000000.0,-51.42532320250073,9.176936234134082,NO,1.1
95.6108808517456,1000000000.0,-51.397971011963996,9.181856699883467,NO,1.1
96.1369879245758,1000000000.0,-51.45990567950033,9.182798719027685,NO,1.1
96.62124109268188,1000000000.0,-51.408870310213324,9.180582846207155,NO,1.1
97.10357546806335,1000000000.0,-51.365596960380316,9.185670492705302,NO,1.1
97.58145523071289,1000000000.0,-51.520819109277376,9.186390822018797,NO,1.1
98.05204677581787,1000000000.0,-51.5141423444623,9.180444179861492,NO,1.1
98.63554120063782,1000000000.0,-51.26851404808653,9.188127703601937,NO,1.1
99.10062432289124,1000000000.0,-51.37544744090817,9.191051106216346,NO,1.1
99.60589694976807,1000000000.0,-51.4389599918723,9.187551510411176,NO,1.1
100.09087872505188,1000000000.0,-51.46199410826125,9.194745357396302,NO,1.1
100.59563660621643,1000000000.0,-51.503679489658545,9.18795076588246,NO,1.1
101.08524656295776,1000000000.0,-51.39894816578713,9.189091568537807,NO,1.1
101.56542897224426,1000000000.0,-51.35973021264615,9.187484097526921,NO,1.1
102.15814137458801,1000000000.0,-51.49565892167219,9.185023741370713,NO,1.1
102.67979335784912,1000000000.0,-51.330669660124656,9.183512895653497,NO,1.1
103.12591433525085,1000000000.0,-51.42920946672695,9.181089340781414,NO,1.1
103.71385431289673,1000000000.0,-51.376519255383705,9.185687424615534,NO,1.1
104.14803004264832,1000000000.0,-51.51947656271024,9.193162502425135,NO,1.1
104.59065699577332,1000000000.0,-51.37404771522302,9.181189212497085,NO,1.1
105.04313206672668,1000000000.0,-51.452425134334035,9.19458828053034,NO,1.1
105.50941514968872,1000000000.0,-51.360161780921416,9.185928270076568,NO,1.1
106.07573866844177,1000000000.0,-51.54197546006579,9.189971010276846,NO,1.1
106.52648091316223,1000000000.0,-51.41439616790429,9.187317014189647,NO,1.1
106.98430728912354,1000000000.0,-51.27539429756286,9.189901231710591,NO,1.1
107.43918490409851,1000000000.0,-51.43787818435741,9.187728187192722,NO,1.1
107.94342184066772,1000000000.0,-51.432709382702065,9.189274482770848,NO,1.1
108.43657636642456,1000000000.0,-51.483713078732706,9.1838245617668,NO,1.1
108.87973284721375,1000000000.0,-51.52350806553213,9.1914044930631,NO,1.1
109.3575849533081,1000000000.0,-51.363962359605665,9.195061148024294,NO,1.1
109.83394312858582,1000000000.0,-51.38243205278193,9.183492809535467,NO,1.1
110.4378035068512,1000000000.0,-51.505692146229826,9.188238153648014,NO,1.1
110.8959949016571,1000000000.0,-51.42006176884252,9.183379585482555,NO,1.1
111.47928881645203,1000000000.0,-51.48502816355051,9.183227917126997,NO,1.1
111.99876737594604,1000000000.0,-51.49637683491384,9.189830871404448,NO,1.1
112.477712392807,1000000000.0,-51.51482925315146,9.19024473005842,NO,1.1
112.92758274078369,1000000000.0,-51.45586176643464,9.189110163843562,NO,1.1
113.41235256195068,1000000000.0,-51.50874408367027,9.186780098800565,NO,1.1
113.89197945594788,1000000000.0,-51.57957620789603,9.189244370323419,NO,1.1
114.38817191123962,1000000000.0,-51.37896547169201,9.188190176040823,NO,1.1
114.87285304069519,1000000000.0,-51.38514868021211,9.190324368797427,NO,1.1
115.3373486995697,1000000000.0,-51.485059190708554,9.19783462130608,NO,1.1
115.77830338478088,1000000000.0,-51.44206817826522,9.186156826757754,NO,1.1
116.30129671096802,1000000000.0,-51.456516666509664,9.183058546623426,NO,1.1
116.7596755027771,1000000000.0,-51.382758940275515,9.187168925281144,NO,1.1
117.22317218780518,1000000000.0,-51.469433988216394,9.182705305661669,NO,1.1
117.67299342155457,1000000000.0,-51.3648510805325,9.179775518451285,NO,1.1
118.23032808303833,1000000000.0,-51.49533156760523,9.181303095094218,NO,1.1
118.75825810432434,1000000000.0,-51.40162128369445,9.17982637158771,NO,1.1
119.24203491210938,1000000000.0,-51.307442931678224,9.17818768688819,NO,1.1
119.69280576705933,1000000000.0,-51.44440592362231,9.180218441376123,NO,1.1
120.14576506614685,1000000000.0,-51.41606666532141,9.187512839935447,NO,1.1
120.58969974517822,1000000000.0,-51.39263698493067,9.18139794675116,NO,1.1
121.04997158050537,1000000000.0,-51.437418817285234,9.180044549599849,NO,1.1
121.54708170890808,1000000000.0,-51.43180235080877,9.180948444299254,NO,1.1
122.01082682609558,1000000000.0,-51.43148580991094,9.184978713369201,NO,1.1
122.46017956733704,1000000000.0,-51.377219897726164,9.182527137012054,NO,1.1
122.93119144439697,1000000000.0,-51.57804988613509,9.186162562730734,NO,1.1
123.43433046340942,1000000000.0,-51.415837883591635,9.182199647715766,NO,1.1
123.89368629455566,1000000000.0,-51.36354714765723,9.182831887896763,NO,1.1
124.32489848136902,1000000000.0,-51.55153953173907,9.182614869824807,NO,1.1
124.80156564712524,1000000000.0,-51.35415541045859,9.185362456706978,NO,1.1
125.24148297309875,1000000000.0,-51.428684585732796,9.185744294058658,NO,1.1
125.71655774116516,1000000000.0,-51.41348652883269,9.183571002929478,NO,1.1
126.17703413963318,1000000000.0,-51.42769184112837,9.175733995510821,NO,1.1
126.70960927009583,1000000000.0,-51.40545486906359,9.182371682891645,NO,1.1
127.30675554275513,1000000000.0,-51.4835155772138,9.177823716105795,NO,1.1
127.76758360862732,1000000000.0,-51.332529291259455,9.177481157420377,NO,1.1
128.22176671028137,1000000000.0,-51.49778461453792,9.179816771610405,NO,1.1
128.68056678771973,1000000000.0,-51.48948171234829,9.173327839664742,NO,1.1
129.16409945487976,1000000000.0,-51.40944634538282,9.173940856190816,NO,1.1
