Elapsed Time (s),Frequency (Hz),S11 (dB),S21 (dB),OBJ,Height (m)
0.2769925594329834,2001000000.0,-87.61189921226487,-86.92847573827022,NO,0.0
0.4940042495727539,2001000000.0,-87.63944787930157,-84.56215413212163,NO,0.0
0.7226364612579346,2001000000.0,-88.89351121112007,-85.40479314647713,NO,0.0
0.938631534576416,2001000000.0,-89.62615882286791,-87.07548907807504,NO,0.0
1.162341594696045,2001000000.0,-89.3672969620037,-86.2434191810479,NO,0.0
1.388786792755127,2001000000.0,-88.57940712061068,-85.84699371924268,NO,0.0
1.6109709739685059,2001000000.0,-87.73475881076804,-85.61396978818925,NO,0.0
1.82413649559021,2001000000.0,-88.85125259017764,-84.2028294499763,NO,0.0
2.043911933898926,2001000000.0,-89.40943165674983,-84.5470719259115,NO,0.0
2.2723658084869385,2001000000.0,-88.17117680168278,-87.20936969783685,NO,0.0
2.484076738357544,2001000000.0,-90.15689418261351,-86.16468715592761,NO,0.0
2.7038753032684326,2001000000.0,-89.5920121418498,-85.82751583515319,NO,0.0
2.925632953643799,2001000000.0,-88.3552349226643,-85.63414028241203,NO,0.0
3.1420514583587646,2001000000.0,-90.73854460085671,-85.61680129970092,NO,0.0
3.364539384841919,2001000000.0,-89.48177371211028,-84.83767322619583,NO,0.0
3.5791873931884766,2001000000.0,-89.05499315896176,-85.18340621762393,NO,0.0
3.7941319942474365,2001000000.0,-89.6945441860517,-85.45049692828027,NO,0.0
4.019625186920166,2001000000.0,-87.79454513197301,-87.05490366703009,NO,0.0
4.240955591201782,2001000000.0,-89.66452935757414,-84.8544399223278,NO,0.0
4.462838649749756,2001000000.0,-88.14906126145736,-86.63246456271936,NO,0.0
4.688811302185059,2001000000.0,-88.0063982173476,-85.33311907463559,NO,0.0
4.912713527679443,2001000000.0,-91.3705288594785,-84.9905344857755,NO,0.0
5.139207124710083,2001000000.0,-88.29266993245716,-85.68081791832044,NO,0.0
5.363953590393066,2001000000.0,-88.84184842481628,-86.41492428666996,NO,0.0
5.5789783000946045,2001000000.0,-88.05426951988375,-87.03044961409432,NO,0.0
5.7963035106658936,2001000000.0,-87.52204635492284,-85.64244436708708,NO,0.0
6.022705554962158,2001000000.0,-89.81133374321935,-86.73335844015014,NO,0.0
6.234869718551636,2001000000.0,-89.23087625661701,-86.1886310392338,NO,0.0
6.456276178359985,2001000000.0,-90.23659183658003,-85.61396402170107,NO,0.0
6.680022239685059,2001000000.0,-88.91686745508986,-84.64688290614515,NO,0.0
6.8930158615112305,2001000000.0,-88.82489359865467,-85.91115060119517,NO,0.0
7.1200947761535645,2001000000.0,-87.87221610023416,-85.68191253016373,NO,0.0
7.357435703277588,2001000000.0,-87.37550400844988,-84.9470141236546,NO,0.0
7.575270175933838,2001000000.0,-91.08934072149141,-84.90336943746388,NO,0.0
7.789990663528442,2001000000.0,-87.23879406890184,-86.90395485020389,NO,0.0
8.012357473373413,2001000000.0,-87.68981243032806,-84.61358875388106,NO,0.0
8.227741241455078,2001000000.0,-89.10714021786832,-86.53256900248229,NO,0.0
8.441931009292603,2001000000.0,-91.10868300828379,-86.14183199647061,NO,0.0
8.672311067581177,2001000000.0,-89.81387357687055,-86.01296468893952,NO,0.0
8.886854410171509,2001000000.0,-89.72583485170206,-85.41124631191772,NO,0.0
9.106672763824463,2001000000.0,-90.11169166257278,-86.98640101458886,NO,0.0
9.33776593208313,2001000000.0,-87.43899256502674,-84.76510564832441,NO,0.0
9.558631181716919,2001000000.0,-88.00357175976686,-85.47015023677994,NO,0.0
9.784769058227539,2001000000.0,-88.8350115882794,-85.729761923879,NO,0.0
10.004398107528687,2001000000.0,-87.6112254833876,-84.83933232984441,NO,0.0
10.231656312942505,2001000000.0,-86.74051237338725,-85.36389450434855,NO,0.0
10.470504760742188,2001000000.0,-88.99088712662768,-86.48649239230778,NO,0.0
10.68569564819336,2001000000.0,-89.2965403049373,-86.5264854063488,NO,0.0
10.908679485321045,2001000000.0,-87.52909180285074,-87.37675104764685,NO,0.0
11.124239683151245,2001000000.0,-90.29739700839768,-86.14925259642305,NO,0.0
11.339402675628662,2001000000.0,-89.5028629060886,-85.61353992901718,NO,0.0
11.563054084777832,2001000000.0,-89.61602067852726,-87.45482913684722,NO,0.0
11.776559114456177,2001000000.0,-89.23963929696868,-85.12838890529889,NO,0.0
11.99266242980957,2001000000.0,-87.41874600864517,-86.48930297545924,NO,0.0
12.221168041229248,2001000000.0,-88.5143059131845,-86.74587278277315,NO,0.0
12.443700790405273,2001000000.0,-89.68107437799686,-86.20305757097846,NO,0.0
12.664245128631592,2001000000.0,-88.55574764682765,-86.54214298805344,NO,0.0
12.87945818901062,2001000000.0,-89.57228941001473,-85.30884091296471,NO,0.0
13.095652103424072,2001000000.0,-90.77332197526182,-86.31677988712843,NO,0.0
13.318270921707153,2001000000.0,-88.129720277046,-86.6834106988737,NO,0.0
13.534968852996826,2001000000.0,-88.40247462175108,-87.56449601697338,NO,0.0
13.75613260269165,2001000000.0,-87.28583612776994,-86.87174893925629,NO,0.0
13.978439569473267,2001000000.0,-90.39582627888258,-88.57771378569808,NO,0.0
14.20503544807434,2001000000.0,-89.3623096883577,-86.94938338526784,NO,0.0
14.430976390838623,2001000000.0,-88.20443420709938,-85.04805951026822,NO,0.0
14.64798903465271,2001000000.0,-88.49845200103026,-87.02343102188155,NO,0.0
14.8719482421875,2001000000.0,-87.65540014683326,-85.64250111935819,NO,0.0
15.085992336273193,2001000000.0,-87.21061738844244,-85.89232082592144,NO,0.0
15.304945468902588,2001000000.0,-89.2870918252786,-84.96331972949214,NO,0.0
15.53138518333435,2001000000.0,-91.1277290530562,-84.41942901359761,NO,0.0
15.747223854064941,2001000000.0,-88.74077260556327,-85.42106261349107,NO,0.0
15.965027570724487,2001000000.0,-89.26058986995385,-86.58131785308498,NO,0.0
16.17786931991577,2001000000.0,-89.2444186668503,-86.020680440619,NO,0.0
16.392244338989258,2001000000.0,-88.45328677931204,-86.13022210805347,NO,0.0
16.614192485809326,2001000000.0,-88.15129788031851,-85.22370752404083,NO,0.0
16.82950711250305,2001000000.0,-89.02700824882416,-85.7260292370202,NO,0.0
17.046351194381714,2001000000.0,-89.12265266312758,-86.79109628770917,NO,0.0
17.270838737487793,2001000000.0,-89.83826799123614,-85.07980427553764,NO,0.0
17.482357501983643,2001000000.0,-88.81108271746952,-84.90179717897732,NO,0.0
17.715324640274048,2001000000.0,-90.2936334285695,-86.66313344348549,NO,0.0
17.92909860610962,2001000000.0,-92.48836020297914,-86.17196641038825,NO,0.0
18.147077083587646,2001000000.0,-89.64747519302335,-87.14900878820836,NO,0.0
18.371933460235596,2001000000.0,-87.87945724857614,-87.1493650349368,NO,0.0
18.604742527008057,2001000000.0,-88.68070390066,-84.84909328197303,NO,0.0
18.827720403671265,2001000000.0,-88.01322801749723,-85.6859087275196,NO,0.0
19.043400287628174,2001000000.0,-88.57520199398344,-85.5125181387574,NO,0.0
19.27160882949829,2001000000.0,-88.09131637003098,-86.26134033673543,NO,0.0
19.487170219421387,2001000000.0,-88.378043464811,-84.09051504102271,NO,0.0
19.715730905532837,2001000000.0,-88.37314291404617,-87.17160534909996,NO,0.0
19.931531190872192,2001000000.0,-90.36313253076351,-85.81979692385733,NO,0.0
20.15218687057495,2001000000.0,-88.77417667240786,-86.22854627882342,NO,0.0
20.378857851028442,2001000000.0,-90.32595375205906,-85.67010037759121,NO,0.0
20.590867042541504,2001000000.0,-89.73078192289915,-86.66776040819398,NO,0.0
20.840620756149292,2001000000.0,-87.70184983032125,-86.38112755111169,NO,0.0
21.067338228225708,2001000000.0,-88.79585898876712,-86.36215556687768,NO,0.0
21.281090021133423,2001000000.0,-89.67511509217644,-85.36748381007841,NO,0.0
21.495882034301758,2001000000.0,-89.74404356409477,-84.69671702958222,NO,0.0
21.723607778549194,2001000000.0,-88.67135816400142,-86.19499978769349,NO,0.0
21.93638515472412,2001000000.0,-89.11496504679872,-85.03498661648035,NO,0.0
22.162198066711426,2001000000.0,-90.0325938425096,-85.97003489093275,NO,0.0
22.38636326789856,2001000000.0,-86.89613325504722,-85.5643466775647,NO,0.0
22.606470346450806,2001000000.0,-87.37561115072886,-86.88650662905579,NO,0.0
22.833595752716064,2001000000.0,-90.29765468115858,-85.73453452586804,NO,0.0
23.053953170776367,2001000000.0,-89.82781744173757,-85.544208615786,NO,0.0
23.274222373962402,2001000000.0,-87.30777449223025,-84.43688742448522,NO,0.0
23.488346338272095,2001000000.0,-88.65709444253739,-85.53605628302078,NO,0.0
23.713295936584473,2001000000.0,-88.37430684641895,-84.1751089111537,NO,0.0
23.934369802474976,2001000000.0,-86.06715899714773,-85.98336595526506,NO,0.0
24.157124042510986,2001000000.0,-85.98990436822673,-84.41743874383764,NO,0.0
24.380074977874756,2001000000.0,-87.85673203639456,-85.26746953917777,NO,0.0
24.59330725669861,2001000000.0,-86.00833895068375,-85.59939982895884,NO,0.0
24.81850838661194,2001000000.0,-88.5407812850764,-84.05088101774446,NO,0.0
25.03091788291931,2001000000.0,-87.28772067945135,-87.37710180205534,NO,0.0
25.246720790863037,2001000000.0,-88.57055783414671,-85.35222512812578,NO,0.0
25.471418380737305,2001000000.0,-88.10411786233372,-84.87194406803839,NO,0.0
25.685312509536743,2001000000.0,-88.80172473506579,-84.98322242721997,NO,0.0
25.91326928138733,2001000000.0,-89.17363469559265,-85.84111853866703,NO,0.0
26.137212991714478,2001000000.0,-88.35906327015296,-85.88458238769923,NO,0.0
26.356574296951294,2001000000.0,-87.00420945036412,-86.93914186605946,NO,0.0
26.580573320388794,2001000000.0,-89.56603364566095,-85.61985285443546,NO,0.0
26.796143770217896,2001000000.0,-87.78342959404762,-84.58931758100948,NO,0.0
27.0298855304718,2001000000.0,-88.58405869125721,-85.40013706924364,NO,0.0
27.243051528930664,2001000000.0,-88.81776166082089,-86.22774519694714,NO,0.0
27.467592000961304,2001000000.0,-86.75934574412003,-84.67969106233747,NO,0.0
27.679621696472168,2001000000.0,-91.19911908370703,-84.51777495518783,NO,0.0
27.897377252578735,2001000000.0,-89.47460467416892,-84.50627354507019,NO,0.0
28.122971773147583,2001000000.0,-86.77654401914644,-84.8166062902247,NO,0.0
28.33863663673401,2001000000.0,-86.8393938540627,-86.62728716477352,NO,0.0
28.56342577934265,2001000000.0,-87.87506255656251,-85.63201464852412,NO,0.0
28.777589082717896,2001000000.0,-88.34011720818253,-84.40184471155001,NO,0.0
29.001807928085327,2001000000.0,-87.22864407899175,-85.67367443456499,NO,0.0
29.231956481933594,2001000000.0,-85.7129987197326,-84.87641669264957,NO,0.0
29.446009874343872,2001000000.0,-87.22140121323461,-84.87098720920721,NO,0.0
29.673897743225098,2001000000.0,-85.94174461939011,-86.42177665310405,NO,0.0
29.887102842330933,2001000000.0,-87.48389117821303,-85.65533037942316,NO,0.0
30.13120985031128,2001000000.0,-86.30498508548669,-86.2172087631827,NO,0.0
30.34704041481018,2001000000.0,-87.1275101728851,-85.32414474883724,NO,0.0
30.573681592941284,2001000000.0,-88.45317076220175,-86.51601595194266,NO,0.0
30.788652181625366,2001000000.0,-88.16140457253233,-86.07858293100442,NO,0.0
31.014704942703247,2001000000.0,-87.11337628050613,-84.03245526052356,NO,0.0
31.228898763656616,2001000000.0,-89.24319293820491,-85.29608969673629,NO,0.0
31.447788953781128,2001000000.0,-88.31592047169936,-84.89020171371612,NO,0.0
31.679166555404663,2001000000.0,-87.61130722624091,-84.77057034632205,NO,0.0
31.89424967765808,2001000000.0,-87.8142164383516,-85.89216450442115,NO,0.0
