Elapsed Time (s),Frequency (Hz),S11 (dB),S21 (dB),OBJ,Height (m)
0.5424721240997314,1400000000.0,-42.33617469849739,10.21604652341503,NO,1.1
0.9793815612792969,1400000000.0,-42.33748939331743,10.216532264800776,NO,1.1
1.4461510181427002,1400000000.0,-42.09785917387185,10.317705532561988,NO,1.1
1.8959457874298096,1400000000.0,-42.01946728079987,10.332335754237391,NO,1.1
2.386226177215576,1400000000.0,-41.643614951850424,10.38103270957171,NO,1.1
2.870572328567505,1400000000.0,-41.62701788985259,10.377518815048877,NO,1.1
3.3337626457214355,1400000000.0,-41.72743106157239,10.28604222597467,NO,1.1
3.7834572792053223,1400000000.0,-42.159908249562044,10.256958483126983,NO,1.1
4.235997676849365,1400000000.0,-42.066364344404136,10.236899121153789,NO,1.1
4.697909593582153,1400000000.0,-42.16485884216131,10.260866863434416,NO,1.1
5.309363126754761,1400000000.0,-42.31975436669679,10.283573662868548,NO,1.1
5.888379812240601,1400000000.0,-42.169823330401044,10.265630104667027,NO,1.1
6.33970832824707,1400000000.0,-42.183838007603214,10.370662760623526,NO,1.1
6.783293962478638,1400000000.0,-42.234319152120754,10.320902338282526,NO,1.1
7.247884273529053,1400000000.0,-42.02489879778955,10.135358566647938,NO,1.1
7.738936901092529,1400000000.0,-41.98115357128188,10.16791281209461,NO,1.1
8.262478590011597,1400000000.0,-41.65619029973346,10.054717282399208,NO,1.1
8.788776874542236,1400000000.0,-42.587956769097445,10.467571613632053,NO,1.1
9.267822742462158,1400000000.0,-41.6664523965992,9.890114347818,NO,1.1
9.740773916244507,1400000000.0,-42.088010034250885,10.09432525591359,NO,1.1
10.194036483764648,1400000000.0,-41.71238725142138,10.152819455499188,NO,1.1
10.636834859848022,1400000000.0,-41.737006396042815,10.018144349117556,NO,1.1
11.087518215179443,1400000000.0,-41.861509982727,10.323338110913799,NO,1.1
11.536787986755371,1400000000.0,-41.88510089321731,10.261698372451418,NO,1.1
11.986046075820923,1400000000.0,-41.9492215553845,10.133780254391457,NO,1.1
12.429281234741211,1400000000.0,-42.0125018452271,10.248854313952906,NO,1.1
12.872080326080322,1400000000.0,-41.957458002297166,10.272806732661214,NO,1.1
13.315106868743896,1400000000.0,-41.96185038339791,10.222813213809541,NO,1.1
13.777709484100342,1400000000.0,-41.99197575199969,10.235970597468151,NO,1.1
14.243043422698975,1400000000.0,-42.04517799032331,10.207321844988675,NO,1.1
14.816508054733276,1400000000.0,-41.9647793775561,10.251347663544719,NO,1.1
15.260120868682861,1400000000.0,-41.902711140005984,10.245797821288498,NO,1.1
15.72197699546814,1400000000.0,-41.97225718288603,10.244316911423383,NO,1.1
16.165902853012085,1400000000.0,-42.00890110348851,10.22917796410207,NO,1.1
16.642996788024902,1400000000.0,-41.95658105610724,10.279044638095925,NO,1.1
17.089406490325928,1400000000.0,-41.934824096283705,10.244890601878442,NO,1.1
17.532854318618774,1400000000.0,-42.04758002598234,10.150036754164805,NO,1.1
17.974888563156128,1400000000.0,-41.98615076839082,10.289312927903616,NO,1.1
18.430036783218384,1400000000.0,-41.99712293745825,10.260578855691755,NO,1.1
18.951200008392334,1400000000.0,-41.96869783230021,10.275109826746247,NO,1.1
19.42091155052185,1400000000.0,-42.07083991712504,10.256944883061392,NO,1.1
19.864991188049316,1400000000.0,-42.03992654783251,10.118129882588015,NO,1.1
20.31654143333435,1400000000.0,-41.93397261641776,10.167631503464914,NO,1.1
20.76272201538086,1400000000.0,-42.01447117916807,10.252631070230024,NO,1.1
21.219402313232422,1400000000.0,-41.929792646380896,10.181217793457517,NO,1.1
21.68980646133423,1400000000.0,-41.93335316615985,10.270869164851003,NO,1.1
22.146578550338745,1400000000.0,-41.95226670825895,10.249018432144672,NO,1.1
22.597512245178223,1400000000.0,-41.78639538688046,10.33045235330805,NO,1.1
23.061573028564453,1400000000.0,-41.76149191005224,10.308191077144908,NO,1.1
23.543486833572388,1400000000.0,-41.80519764912319,10.293326278028976,NO,1.1
24.136341333389282,1400000000.0,-41.77466778120252,10.300749108409468,NO,1.1
24.641740322113037,1400000000.0,-41.75894106849328,10.289947172417959,NO,1.1
25.229825258255005,1400000000.0,-41.808321152369395,10.28769715220838,NO,1.1
25.748214721679688,1400000000.0,-41.67435314365852,10.240396372644117,NO,1.1
26.210431575775146,1400000000.0,-41.508905018487795,10.238169949142502,NO,1.1
26.656009197235107,1400000000.0,-41.49224589594421,10.29506416149184,NO,1.1
27.10810422897339,1400000000.0,-41.58618661539936,10.302342477674959,NO,1.1
27.598843812942505,1400000000.0,-41.76077692138463,10.244401012731004,NO,1.1
28.04868507385254,1400000000.0,-41.73203851637495,10.259483233679799,NO,1.1
28.50075078010559,1400000000.0,-42.09240744700162,10.195433742772217,NO,1.1
29.069313526153564,1400000000.0,-41.854709009149566,10.311827736923384,NO,1.1
29.501603841781616,1400000000.0,-41.80634803146471,10.260653460277522,NO,1.1
29.956074476242065,1400000000.0,-41.8243005914036,10.166179292538665,NO,1.1
30.39126968383789,1400000000.0,-42.00934168254716,10.24547302906911,NO,1.1
30.86242365837097,1400000000.0,-41.856815408955825,10.16821664380235,NO,1.1
31.29025673866272,1400000000.0,-41.90483178201535,10.220853094051067,NO,1.1
31.733246564865112,1400000000.0,-41.892621259470566,10.208117959647344,NO,1.1
32.1682665348053,1400000000.0,-41.88041990766875,10.251980035922108,NO,1.1
32.60896968841553,1400000000.0,-41.85282136566481,10.277129248372196,NO,1.1
33.05280375480652,1400000000.0,-41.89813923135259,10.242320021901213,NO,1.1
33.4926643371582,1400000000.0,-42.00288331208786,10.220647380693528,NO,1.1
33.939095973968506,1400000000.0,-42.00162467431694,10.212116051848877,NO,1.1
34.38977646827698,1400000000.0,-41.950653512516176,10.212426906740777,NO,1.1
34.82326149940491,1400000000.0,-41.93516093205715,10.21392435496998,NO,1.1
35.27617692947388,1400000000.0,-41.912154591155684,10.233641695659234,NO,1.1
35.72447061538696,1400000000.0,-41.89097869543399,10.21515425074368,NO,1.1
36.16978073120117,1400000000.0,-41.801383885126384,10.226867234056458,NO,1.1
36.72487139701843,1400000000.0,-41.818579464590954,10.213811233835441,NO,1.1
37.179975509643555,1400000000.0,-41.84194171465278,10.215899725032793,NO,1.1
37.62279725074768,1400000000.0,-41.79721601116941,10.255021671476332,NO,1.1
38.07488489151001,1400000000.0,-41.932872592355004,10.275352380057843,NO,1.1
38.508822202682495,1400000000.0,-41.77753820679362,10.26500046387342,NO,1.1
38.96261501312256,1400000000.0,-42.1810102568665,10.252685421962646,NO,1.1
39.43470573425293,1400000000.0,-42.03449714392551,10.242133853519071,NO,1.1
39.890307903289795,1400000000.0,-42.08343790941383,10.154776852757328,NO,1.1
40.33239555358887,1400000000.0,-41.889126264160325,10.25724142496037,NO,1.1
40.80756616592407,1400000000.0,-41.86047844904444,10.264173908731674,NO,1.1
41.249072790145874,1400000000.0,-41.97413428450409,10.219578958211697,NO,1.1
41.70248079299927,1400000000.0,-41.826988048813035,10.09625859727743,NO,1.1
42.1448974609375,1400000000.0,-41.85357815772191,10.080826921198302,NO,1.1
42.59914207458496,1400000000.0,-41.970742697798386,10.100106615167736,NO,1.1
43.036349058151245,1400000000.0,-41.89146548807153,10.080624637699508,NO,1.1
43.48820638656616,1400000000.0,-41.842787745457784,10.062676419363807,NO,1.1
43.96789789199829,1400000000.0,-41.7644346667846,10.093375718551309,NO,1.1
44.452473163604736,1400000000.0,-42.00383711873602,10.117559698592801,NO,1.1
44.91760540008545,1400000000.0,-42.11267002879056,10.088483031088519,NO,1.1
45.36538362503052,1400000000.0,-42.10348703154571,10.09677552326114,NO,1.1
45.79780960083008,1400000000.0,-42.20347643759615,10.189845846648799,NO,1.1
46.27331280708313,1400000000.0,-42.147347221476544,10.210914656063741,NO,1.1
46.70933938026428,1400000000.0,-42.14269561325861,10.20363310361017,NO,1.1
47.18137264251709,1400000000.0,-42.015074923456254,10.185610203430336,NO,1.1
47.651787519454956,1400000000.0,-42.003731033813374,10.184152257423019,NO,1.1
48.09415817260742,1400000000.0,-42.05142840319219,10.17204521006578,NO,1.1
48.584460973739624,1400000000.0,-41.98753672379354,10.123276594256803,NO,1.1
49.03799271583557,1400000000.0,-42.04432835044247,10.061937327385577,NO,1.1
49.472832918167114,1400000000.0,-41.83284113893717,10.089260622839927,NO,1.1
49.92417526245117,1400000000.0,-42.00367824773235,10.11650258734254,NO,1.1
50.37590789794922,1400000000.0,-41.99127367798279,10.295300319398901,NO,1.1
50.827678203582764,1400000000.0,-42.08448164227305,10.381094853149355,NO,1.1
51.27232885360718,1400000000.0,-42.02497189324702,10.021348051420196,NO,1.1
51.71827435493469,1400000000.0,-42.08942919305139,10.113387180206397,NO,1.1
52.15304470062256,1400000000.0,-42.033826770886165,10.23298295748452,NO,1.1
52.59708213806152,1400000000.0,-41.8423423992818,10.123802398126022,NO,1.1
53.05804514884949,1400000000.0,-41.813942663468346,10.268081152048287,NO,1.1
53.50177454948425,1400000000.0,-41.72966633212404,10.379141425689314,NO,1.1
53.93983340263367,1400000000.0,-41.98901245458114,10.347344947560568,NO,1.1
54.38340163230896,1400000000.0,-41.97023703764377,10.047705289359477,NO,1.1
54.83046007156372,1400000000.0,-41.862904894996255,10.388919830232284,NO,1.1
55.276214361190796,1400000000.0,-41.75623375967062,10.239253096352556,NO,1.1
55.791950941085815,1400000000.0,-42.0660465615065,10.244701928826203,NO,1.1
56.23343777656555,1400000000.0,-41.994253565940355,10.431754248572908,NO,1.1
56.68056392669678,1400000000.0,-42.02228005180045,9.97097579924954,NO,1.1
57.13274312019348,1400000000.0,-41.92092310612104,10.243873025033121,NO,1.1
57.573190212249756,1400000000.0,-41.9610979452154,10.23254759050823,NO,1.1
58.10292887687683,1400000000.0,-42.031393088724265,10.252876525622735,NO,1.1
58.54364252090454,1400000000.0,-42.070783261478404,10.233176851339902,NO,1.1
59.04343032836914,1400000000.0,-42.19354023181813,10.110870947441498,NO,1.1
59.58465218544006,1400000000.0,-41.89499122947561,10.212028087620231,NO,1.1
60.03913736343384,1400000000.0,-42.00642389627876,10.176756739612745,NO,1.1
60.5283784866333,1400000000.0,-41.969817626249686,10.240601367131427,NO,1.1
60.98601150512695,1400000000.0,-42.022542453133774,10.264989648656313,NO,1.1
61.451682806015015,1400000000.0,-41.978372178810936,10.142604213818533,NO,1.1
61.92426943778992,1400000000.0,-42.23710346784509,10.217360482724809,NO,1.1
62.36911416053772,1400000000.0,-41.9020922870866,10.281736539611433,NO,1.1
62.81303882598877,1400000000.0,-42.097109997505314,10.222216845490477,NO,1.1
63.262004375457764,1400000000.0,-41.94715609648846,10.141653080454255,NO,1.1
63.76913785934448,1400000000.0,-42.10509285435286,10.243339013308033,NO,1.1
64.218594789505,1400000000.0,-42.14981159693181,10.273130333929945,NO,1.1
64.75388026237488,1400000000.0,-41.981085959155294,10.205673499914067,NO,1.1
65.20905065536499,1400000000.0,-42.19286823984972,10.15516629848201,NO,1.1
65.76081442832947,1400000000.0,-42.345627442771075,10.170319951664911,NO,1.1
66.20425415039062,1400000000.0,-42.354636442410765,10.130932546651747,NO,1.1
66.67936706542969,1400000000.0,-42.34874390317215,10.120967387570857,NO,1.1
67.12185788154602,1400000000.0,-42.42181832225384,10.152946766841605,NO,1.1
67.58846616744995,1400000000.0,-42.14764991482123,10.138601448311688,NO,1.1
68.02390837669373,1400000000.0,-42.25918651127087,10.130931933888828,NO,1.1
68.47678399085999,1400000000.0,-42.06085005179973,10.173343332521313,NO,1.1
68.91639471054077,1400000000.0,-41.803051076266925,10.267039580969557,NO,1.1
69.37372303009033,1400000000.0,-42.13149401091058,10.12883176431387,NO,1.1
69.8351457118988,1400000000.0,-42.035471926628546,10.346804542758779,NO,1.1
70.27710151672363,1400000000.0,-41.93013875835459,10.325280876820152,NO,1.1
70.74721050262451,1400000000.0,-41.9788307109996,10.325866946743375,NO,1.1
71.20227670669556,1400000000.0,-42.17441352691505,10.32797767049868,NO,1.1
71.64745283126831,1400000000.0,-42.02848922993856,10.334752547826184,NO,1.1
72.10829210281372,1400000000.0,-41.91986433226984,10.280966157770772,NO,1.1
72.55111122131348,1400000000.0,-41.82878995551802,10.280761342035747,NO,1.1
72.99864435195923,1400000000.0,-41.86517050224411,10.311517508654827,NO,1.1
73.43330979347229,1400000000.0,-42.085959601889684,10.291604692241425,NO,1.1
73.88416981697083,1400000000.0,-41.97840006811326,10.249996057613249,NO,1.1
74.34237861633301,1400000000.0,-41.978946556326136,10.301461548687506,NO,1.1
74.7934935092926,1400000000.0,-41.791243310076,10.183582083632443,NO,1.1
75.2378740310669,1400000000.0,-41.68322854671644,10.33145307802345,NO,1.1
75.69225192070007,1400000000.0,-41.944705049147984,10.208103790907707,NO,1.1
76.13560891151428,1400000000.0,-42.0500240944303,10.154282040602338,NO,1.1
76.59629034996033,1400000000.0,-42.05821721194931,10.138486130027689,NO,1.1
77.04832458496094,1400000000.0,-41.97973372854201,10.253727652571694,NO,1.1
77.50016617774963,1400000000.0,-42.09128355416184,10.24223572040392,NO,1.1
77.93689727783203,1400000000.0,-42.04943683533452,10.170129340496166,NO,1.1
78.39000344276428,1400000000.0,-41.938462147344204,10.228215871379888,NO,1.1
78.83357048034668,1400000000.0,-42.00989526812552,10.228792615814408,NO,1.1
79.28125190734863,1400000000.0,-41.9646923377848,10.247349497394698,NO,1.1
79.75695633888245,1400000000.0,-42.01295277512246,10.20722435707231,NO,1.1
80.20849061012268,1400000000.0,-42.03162484844822,10.20855951832507,NO,1.1
80.65099620819092,1400000000.0,-42.02757490359316,10.268777309055185,NO,1.1
81.1058120727539,1400000000.0,-41.96474173145817,10.219590945736778,NO,1.1
81.53850317001343,1400000000.0,-41.96026579164861,10.251877749253708,NO,1.1
82.02181196212769,1400000000.0,-41.98438252681061,10.213913285181826,NO,1.1
82.46302199363708,1400000000.0,-42.03643413780651,10.198069473610074,NO,1.1
82.91940832138062,1400000000.0,-42.049490482690686,10.181330556976896,NO,1.1
83.38377356529236,1400000000.0,-42.00717002139312,10.209411297171103,NO,1.1
83.83393692970276,1400000000.0,-42.00868156738328,10.209419193144573,NO,1.1
84.34578084945679,1400000000.0,-41.91561415168167,10.242821375995621,NO,1.1
84.79897785186768,1400000000.0,-42.03814330407178,10.23158923246,NO,1.1
85.24110507965088,1400000000.0,-42.049133414239876,10.283285494482136,NO,1.1
85.75167226791382,1400000000.0,-42.02121534017606,10.269455362686067,NO,1.1
86.18676924705505,1400000000.0,-42.12142694666949,10.233572156410485,NO,1.1
86.66202735900879,1400000000.0,-42.08269530676787,10.219611605954096,NO,1.1
87.10647487640381,1400000000.0,-42.06443501046451,10.214716456362623,NO,1.1
87.5574402809143,1400000000.0,-42.0145098941702,10.214696470875799,NO,1.1
87.99707365036011,1400000000.0,-41.99781702438736,10.21701822308806,NO,1.1
88.46078085899353,1400000000.0,-41.97091189110523,10.241504163393822,NO,1.1
88.90269541740417,1400000000.0,-41.97883054987237,10.205327323042148,NO,1.1
89.39106893539429,1400000000.0,-41.96656425882069,10.247585551727312,NO,1.1
89.86948728561401,1400000000.0,-41.9869163953786,10.208040875083773,NO,1.1
90.33330965042114,1400000000.0,-41.934209643221976,10.230937338661512,NO,1.1
90.77489614486694,1400000000.0,-41.992437199785485,10.167660410008876,NO,1.1
91.22912240028381,1400000000.0,-41.93340081342241,10.192020592700183,NO,1.1
91.66217088699341,1400000000.0,-42.037867746753925,10.159844338224213,NO,1.1
92.11412930488586,1400000000.0,-42.02710632688763,10.151790044363814,NO,1.1
92.60492372512817,1400000000.0,-42.01528028218882,10.14192012295232,NO,1.1
93.0478162765503,1400000000.0,-42.06678207016323,10.160009310186208,NO,1.1
93.4826111793518,1400000000.0,-42.106117009075405,10.191195739477198,NO,1.1
93.92655086517334,1400000000.0,-42.0544330582956,10.14837963500851,NO,1.1
94.48633766174316,1400000000.0,-42.03326410026808,10.176838666874325,NO,1.1
95.04907202720642,1400000000.0,-42.07080260590302,10.159463467589731,NO,1.1
95.48051357269287,1400000000.0,-42.08436134216173,10.20566392314545,NO,1.1
95.93520855903625,1400000000.0,-42.08353147857803,10.225679251893656,NO,1.1
96.511892080307,1400000000.0,-42.00804907903387,10.235938359058814,NO,1.1
96.97692561149597,1400000000.0,-41.99703149562676,10.240425784438008,NO,1.1
97.4872498512268,1400000000.0,-41.97256869206707,10.240458998510098,NO,1.1
97.94695568084717,1400000000.0,-41.96343396958731,10.217340197815687,NO,1.1
98.39031791687012,1400000000.0,-41.96212491908316,10.330782653525441,NO,1.1
98.89598417282104,1400000000.0,-42.0918321403022,10.211071353922849,NO,1.1
99.36598229408264,1400000000.0,-42.05552868550575,10.191397056624833,NO,1.1
99.81517148017883,1400000000.0,-42.00605047586131,10.291821403252852,NO,1.1
100.40483617782593,1400000000.0,-41.8336532498348,10.302702703899742,NO,1.1
100.84955954551697,1400000000.0,-41.993970914580736,10.257729374725841,NO,1.1
101.28556680679321,1400000000.0,-41.88531391818242,10.172732497059078,NO,1.1
101.73394393920898,1400000000.0,-42.17876538785826,10.249455641288229,NO,1.1
102.169362783432,1400000000.0,-42.07540173897095,10.33959981016131,NO,1.1
102.61398220062256,1400000000.0,-41.9321964598181,10.226712074582466,NO,1.1
103.04996013641357,1400000000.0,-41.926789842311216,10.259071699149466,NO,1.1
103.50664710998535,1400000000.0,-41.88921481585071,10.335485139666416,NO,1.1
103.94011163711548,1400000000.0,-41.83127525547196,10.315995643484953,NO,1.1
104.39505815505981,1400000000.0,-41.9154403511495,10.197094675304697,NO,1.1
104.83079051971436,1400000000.0,-41.95561322213465,10.207598774503419,NO,1.1
105.27353477478027,1400000000.0,-41.936356691516814,10.141935520294417,NO,1.1
105.70918321609497,1400000000.0,-41.92959768744018,10.278348951671177,NO,1.1
106.14660286903381,1400000000.0,-41.92501228462877,10.191321047940383,NO,1.1
106.58973550796509,1400000000.0,-42.055513903747574,10.232564039970121,NO,1.1
107.04428434371948,1400000000.0,-41.957580498312616,10.160943685889547,NO,1.1
107.52254581451416,1400000000.0,-42.101824769816446,10.187266104973967,NO,1.1
107.97532176971436,1400000000.0,-41.874562343753496,10.265953561379186,NO,1.1
108.4182550907135,1400000000.0,-41.802255603610554,10.180241946337624,NO,1.1
108.86048889160156,1400000000.0,-41.78216533194187,10.133953568840084,NO,1.1
109.30352687835693,1400000000.0,-41.81776933305541,10.207172618258127,NO,1.1
109.7589385509491,1400000000.0,-41.78330481805872,10.228347826477492,NO,1.1
110.19394993782043,1400000000.0,-41.68711247669022,10.201475485545268,NO,1.1
110.65676522254944,1400000000.0,-41.737681916419646,10.224879475063522,NO,1.1
111.10570478439331,1400000000.0,-41.77817345356863,10.216881263307801,NO,1.1
111.57857656478882,1400000000.0,-41.74292918854164,10.244980727115582,NO,1.1
112.01998615264893,1400000000.0,-41.83027098183114,10.252998304497307,NO,1.1
112.47046041488647,1400000000.0,-41.695392208253146,10.178395540994185,NO,1.1
112.92651653289795,1400000000.0,-41.644183617662314,10.168448106588912,NO,1.1
113.41412997245789,1400000000.0,-41.67535696488692,10.19615885240087,NO,1.1
113.86143398284912,1400000000.0,-41.71981254452099,10.20140178536128,NO,1.1
114.31537890434265,1400000000.0,-41.6851381047355,10.231497494638242,NO,1.1
114.78950905799866,1400000000.0,-41.6805179822974,10.264576520282414,NO,1.1
115.26519179344177,1400000000.0,-41.6571280232509,10.190355721226299,NO,1.1
115.72788739204407,1400000000.0,-41.63399969964641,10.208682728352866,NO,1.1
116.17802810668945,1400000000.0,-41.677187005271186,10.176642711390976,NO,1.1
116.64020776748657,1400000000.0,-41.84858982281842,10.247564933040348,NO,1.1
117.08192944526672,1400000000.0,-41.835739971898505,10.155844275447043,NO,1.1
117.5189425945282,1400000000.0,-41.80536436047436,10.176519793925468,NO,1.1
117.96982908248901,1400000000.0,-41.820935500600775,10.178337950351434,NO,1.1
118.40899109840393,1400000000.0,-42.04773541064161,10.115819711026825,NO,1.1
118.87214541435242,1400000000.0,-41.745492677403256,10.134587934095709,NO,1.1
119.2932014465332,1400000000.0,-42.045002857384674,10.215629040545352,NO,1.1
119.83381533622742,1400000000.0,-41.90165537071397,10.214695746683555,NO,1.1
120.27470374107361,1400000000.0,-41.88031749834636,10.194566728795724,NO,1.1
120.74868679046631,1400000000.0,-41.99109989296688,10.139557177480896,NO,1.1
