Elapsed Time (s),Frequency (Hz),S11 (dB),S21 (dB),OBJ,Height (m)
0.42893362045288086,1800000000.0,-41.40220856697766,-10.609666833505376,NO,1.3
0.8481032848358154,1800000000.0,-41.683827487851424,10.268309653117038,NO,1.3
1.2624027729034424,1800000000.0,-41.08751850692718,10.2952864530805,NO,1.3
1.700171709060669,1800000000.0,-43.154160291082675,10.29876728052113,NO,1.3
2.122215986251831,1800000000.0,-41.621538983973565,10.306084625677043,NO,1.3
2.5620551109313965,1800000000.0,-42.70479803992093,10.331129776468233,NO,1.3
2.9753880500793457,1800000000.0,-41.686070895629754,10.284587351105387,NO,1.3
3.3987951278686523,1800000000.0,-42.01907297206132,10.231917795127927,NO,1.3
3.8228392601013184,1800000000.0,-42.256203437510116,10.325227647069852,NO,1.3
4.2559120655059814,1800000000.0,-41.46344138958063,10.33654885120372,NO,1.3
4.683470726013184,1800000000.0,-42.31584589336042,10.366774300629128,NO,1.3
5.11374044418335,1800000000.0,-41.71348044971669,10.338166945181266,NO,1.3
5.526430606842041,1800000000.0,-42.44006680500435,10.327283750775852,NO,1.3
5.952868700027466,1800000000.0,-41.496251436017666,10.30820761129512,NO,1.3
6.362117052078247,1800000000.0,-42.95542427823051,10.34738483738304,NO,1.3
6.782994747161865,1800000000.0,-42.954013870907346,10.303771157895984,NO,1.3
7.2028892040252686,1800000000.0,-42.96051346719757,10.252355770334745,NO,1.3
7.625032186508179,1800000000.0,-41.815798692897886,10.370054581597072,NO,1.3
8.033466815948486,1800000000.0,-41.44567269006346,10.344623124776366,NO,1.3
8.455422163009644,1800000000.0,-42.244159685109686,10.339043863408854,NO,1.3
8.872142314910889,1800000000.0,-42.96394817976341,10.236679556982441,NO,1.3
9.299620389938354,1800000000.0,-41.94065935053377,10.276534258926118,NO,1.3
9.727295875549316,1800000000.0,-41.54639113244518,10.377747654969125,NO,1.3
10.147003173828125,1800000000.0,-42.888467589991855,10.368277469447111,NO,1.3
10.564090728759766,1800000000.0,-42.003145080518806,10.32135420756211,NO,1.3
10.983181715011597,1800000000.0,-41.9953445810624,10.314886089936008,NO,1.3
11.404972314834595,1800000000.0,-42.11256075279974,10.344295101788752,NO,1.3
11.825374603271484,1800000000.0,-42.72302376552733,10.36680820490836,NO,1.3
12.236528873443604,1800000000.0,-42.24021034145061,10.324292892017958,NO,1.3
12.65724515914917,1800000000.0,-42.006826640357275,10.33389348972182,NO,1.3
13.068568229675293,1800000000.0,-41.478455243112684,10.254468584065856,NO,1.3
13.48495626449585,1800000000.0,-42.79395765027965,10.354787350649167,NO,1.3
13.895739316940308,1800000000.0,-42.73453392230529,10.335298267669867,NO,1.3
14.324578762054443,1800000000.0,-42.54939702774517,10.281000576191575,NO,1.3
14.742992639541626,1800000000.0,-41.85879771684816,10.296497072862934,NO,1.3
15.164671659469604,1800000000.0,-42.31956519261425,10.367335291320941,NO,1.3
15.578996419906616,1800000000.0,-41.81072859997425,10.33410880510032,NO,1.3
16.001197338104248,1800000000.0,-42.372105649530866,10.302541847271145,NO,1.3
16.420143127441406,1800000000.0,-42.08121544572634,10.335699596787052,NO,1.3
16.841583728790283,1800000000.0,-41.76119300691168,10.36515701378472,NO,1.3
17.25134015083313,1800000000.0,-42.35316620205008,10.37962366337343,NO,1.3
17.675710916519165,1800000000.0,-41.21398706101198,10.387849278655391,NO,1.3
18.100301265716553,1800000000.0,-42.58241940762346,10.256760584263604,NO,1.3
18.539456129074097,1800000000.0,-42.44973174762534,10.29506571677921,NO,1.3
18.956401348114014,1800000000.0,-41.766537581587514,10.41509172009556,NO,1.3
19.377930879592896,1800000000.0,-42.18442512145116,10.397478254377353,NO,1.3
19.80018186569214,1800000000.0,-42.29786564879383,10.33201464952328,NO,1.3
20.22254991531372,1800000000.0,-42.63419688586178,10.303717587581628,NO,1.3
20.635042428970337,1800000000.0,-41.88951529252303,10.318132271440161,NO,1.3
21.061479806900024,1800000000.0,-41.21774544594034,10.35726090971021,NO,1.3
21.489754915237427,1800000000.0,-42.27913417634447,10.347551551888564,NO,1.3
21.91197967529297,1800000000.0,-42.172279741922296,10.312265807875287,NO,1.3
22.327452659606934,1800000000.0,-42.047283481415676,10.357918924706851,NO,1.3
22.749865293502808,1800000000.0,-41.84920564685279,10.33859977369508,NO,1.3
23.16282296180725,1800000000.0,-42.26470089787384,10.299999512487696,NO,1.3
23.58310294151306,1800000000.0,-41.99414269445093,10.385478537975054,NO,1.3
23.99750328063965,1800000000.0,-42.82772656647373,10.39557203322955,NO,1.3
24.41909909248352,1800000000.0,-42.8680392052776,10.398728917099973,NO,1.3
24.8376681804657,1800000000.0,-43.11944828744362,10.299273837601483,NO,1.3
25.259637117385864,1800000000.0,-42.79089435716457,10.24824898973524,NO,1.3
25.686301231384277,1800000000.0,-42.005946182926465,10.390337561053787,NO,1.3
26.110811710357666,1800000000.0,-41.78372878773429,10.389197647481804,NO,1.3
26.526655197143555,1800000000.0,-41.84929103272091,10.356525604728972,NO,1.3
26.955238819122314,1800000000.0,-41.90423182338427,10.336849638563741,NO,1.3
27.370442628860474,1800000000.0,-42.11697263445287,10.353284784809485,NO,1.3
27.79285168647766,1800000000.0,-41.96416577408363,10.333584595240646,NO,1.3
28.20750403404236,1800000000.0,-42.07042432096742,10.318283115691562,NO,1.3
28.637389421463013,1800000000.0,-42.017055674314875,10.317280483856543,NO,1.3
29.052688121795654,1800000000.0,-41.99319293152672,10.313954808927466,NO,1.3
29.471741437911987,1800000000.0,-42.110326030746194,10.323353752423309,NO,1.3
29.88882088661194,1800000000.0,-42.10706015346957,10.327462573649324,NO,1.3
30.308138608932495,1800000000.0,-42.12124036547436,10.327860836356253,NO,1.3
30.720804691314697,1800000000.0,-42.07248229015541,10.304093457875364,NO,1.3
31.14782428741455,1800000000.0,-41.994796592379856,10.290507466415107,NO,1.3
31.565431833267212,1800000000.0,-42.06179391056765,10.30431700411868,NO,1.3
31.988444566726685,1800000000.0,-42.003237857746704,10.322714986927659,NO,1.3
32.401230812072754,1800000000.0,-42.859702377349215,10.252091340421579,NO,1.3
32.84179139137268,1800000000.0,-41.72936610295508,10.197397812827498,NO,1.3
33.31545400619507,1800000000.0,-41.56412579718699,10.283760746422214,NO,1.3
33.74439978599548,1800000000.0,-41.69950056694175,10.271194105794034,NO,1.3
34.159570932388306,1800000000.0,-41.447350715457,10.282028807465116,NO,1.3
34.61740851402283,1800000000.0,-41.732975821584034,10.31648326021415,NO,1.3
35.03829073905945,1800000000.0,-41.75633034502815,10.37393225088243,NO,1.3
35.467952489852905,1800000000.0,-42.60399318711593,10.27908283527272,NO,1.3
35.95327162742615,1800000000.0,-42.237784171153294,10.36548603132392,NO,1.3
36.3963189125061,1800000000.0,-41.980690996430454,10.361274203812098,NO,1.3
36.81324124336243,1800000000.0,-41.87083432097723,10.346501060315072,NO,1.3
37.24776077270508,1800000000.0,-41.841692965505814,10.381275272388105,NO,1.3
37.66549587249756,1800000000.0,-41.84478074789738,10.343768477358426,NO,1.3
38.097606897354126,1800000000.0,-41.86731988800539,10.337257484805933,NO,1.3
38.53148555755615,1800000000.0,-41.88164667111107,10.374237753417965,NO,1.3
38.95662021636963,1800000000.0,-40.635943868704274,10.271832594937377,NO,1.3
39.372308015823364,1800000000.0,-41.21339095761277,10.278622736738964,NO,1.3
39.821176528930664,1800000000.0,-41.70756830186433,10.288715658104932,NO,1.3
40.23476505279541,1800000000.0,-41.107641541951104,10.292937874267434,NO,1.3
40.65920662879944,1800000000.0,-41.23094204804127,10.323813584830406,NO,1.3
41.07440781593323,1800000000.0,-41.13036997963142,10.32353281291157,NO,1.3
41.50097131729126,1800000000.0,-41.06235432332092,10.30151256869701,NO,1.3
41.9254035949707,1800000000.0,-41.24577431434501,10.350610430219508,NO,1.3
42.36589241027832,1800000000.0,-41.85631539422299,10.312995599905715,NO,1.3
42.78151822090149,1800000000.0,-41.660568016679576,10.415031743580666,NO,1.3
43.20541334152222,1800000000.0,-41.54662322859974,10.381770815197097,NO,1.3
43.6194269657135,1800000000.0,-41.89455045369592,10.257013785276163,NO,1.3
44.0435106754303,1800000000.0,-42.10160093713127,10.37898046385649,NO,1.3
44.454049587249756,1800000000.0,-42.48832849991618,10.340520670015792,NO,1.3
44.87492060661316,1800000000.0,-41.65333693928207,10.296678398775164,NO,1.3
45.28552436828613,1800000000.0,-41.70522830294252,10.280676918579466,NO,1.3
45.70487356185913,1800000000.0,-42.42641349528512,10.275208942329993,NO,1.3
46.11791777610779,1800000000.0,-41.62691277650858,10.303127098196159,NO,1.3
46.54127359390259,1800000000.0,-41.1410842545574,10.221765078896228,NO,1.3
46.956777811050415,1800000000.0,-41.13646005613765,10.47721824580234,NO,1.3
47.37403750419617,1800000000.0,-40.70427005125623,10.47826828386507,NO,1.3
47.78760647773743,1800000000.0,-40.22415258146601,10.374189869960484,NO,1.3
48.218987703323364,1800000000.0,-40.395305212637844,10.377955089285752,NO,1.3
48.63033890724182,1800000000.0,-40.32624165449457,10.270979977866116,NO,1.3
49.050437211990356,1800000000.0,-40.55013354429999,10.178874984171477,NO,1.3
49.46340775489807,1800000000.0,-40.77329276415632,10.187804409895245,NO,1.3
49.888657093048096,1800000000.0,-40.459020913635506,10.25545979759422,NO,1.3
50.303343296051025,1800000000.0,-40.489963863846285,10.292532376549769,NO,1.3
50.725032567977905,1800000000.0,-40.68783368669556,10.273146802361847,NO,1.3
51.14237070083618,1800000000.0,-40.45476623307232,10.27878561384133,NO,1.3
51.56425428390503,1800000000.0,-40.449374358538805,10.226476643691125,NO,1.3
51.97926425933838,1800000000.0,-41.289685483871786,10.413255607707924,NO,1.3
52.4043653011322,1800000000.0,-41.22798690893148,10.32104986862465,NO,1.3
52.81791043281555,1800000000.0,-41.24269278921403,10.29818238609446,NO,1.3
53.27051568031311,1800000000.0,-41.13630699672196,10.331424781111014,NO,1.3
53.679683208465576,1800000000.0,-41.30254511001227,10.351008070789895,NO,1.3
54.09980654716492,1800000000.0,-41.32669615081343,10.382013168112568,NO,1.3
54.510921001434326,1800000000.0,-41.34631447719678,10.405431041900988,NO,1.3
54.9573335647583,1800000000.0,-41.37494352228206,10.361140508593337,NO,1.3
55.38566303253174,1800000000.0,-41.486671596094766,10.283730830137653,NO,1.3
55.81066560745239,1800000000.0,-41.34509322484963,10.299480441900489,NO,1.3
56.22333002090454,1800000000.0,-41.36702693273244,10.336139011523775,NO,1.3
56.647812604904175,1800000000.0,-41.36024853063898,10.353476760200323,NO,1.3
57.06297707557678,1800000000.0,-41.56574116689293,10.393470291673147,NO,1.3
57.48436641693115,1800000000.0,-41.42255794990164,10.386957990149583,NO,1.3
57.897172689437866,1800000000.0,-41.24007068299336,10.370312423875534,NO,1.3
58.31737041473389,1800000000.0,-41.36713882958016,10.369298115942868,NO,1.3
58.72873902320862,1800000000.0,-41.3668146072153,10.397122414982995,NO,1.3
59.14950466156006,1800000000.0,-41.36449142293576,10.378473584339085,NO,1.3
59.55849504470825,1800000000.0,-41.22929097122997,10.367272055368598,NO,1.3
59.97927689552307,1800000000.0,-41.31519799381327,10.370903642598446,NO,1.3
60.39680242538452,1800000000.0,-41.360836058574634,10.370814302969302,NO,1.3
60.81486678123474,1800000000.0,-41.38051146253624,10.389564197228246,NO,1.3
61.223891735076904,1800000000.0,-41.37982558724837,10.387933601461494,NO,1.3
61.65004754066467,1800000000.0,-41.4388086171451,10.399121487169724,NO,1.3
62.06703782081604,1800000000.0,-41.2285465394483,10.36816825814088,NO,1.3
62.49553608894348,1800000000.0,-41.192060993308445,10.373481014988027,NO,1.3
62.908881187438965,1800000000.0,-41.42289341486212,10.411901436009583,NO,1.3
63.329245805740356,1800000000.0,-41.52086107995355,10.463681969923739,NO,1.3
63.743335485458374,1800000000.0,-41.824625301030295,10.515188825057518,NO,1.3
64.1715624332428,1800000000.0,-41.620888649781435,10.522182280910698,NO,1.3
64.58962678909302,1800000000.0,-41.93239968778279,10.506771373401843,NO,1.3
65.01447057723999,1800000000.0,-41.95032121208827,10.54074296844945,NO,1.3
65.42353796958923,1800000000.0,-41.98111376254049,10.507110622888051,NO,1.3
65.84293913841248,1800000000.0,-42.136963345873454,10.556378122097168,NO,1.3
66.2527015209198,1800000000.0,-42.06022730321063,10.504990554142994,NO,1.3
66.69238519668579,1800000000.0,-42.218648827811556,10.572774953900952,NO,1.3
67.10382175445557,1800000000.0,-42.16179627674543,10.540532098513287,NO,1.3
67.52233409881592,1800000000.0,-42.159460979782644,10.536884667085232,NO,1.3
67.9503984451294,1800000000.0,-42.190073877263856,10.547520291611018,NO,1.3
68.37093806266785,1800000000.0,-42.205443712708316,10.541568940251073,NO,1.3
68.77910494804382,1800000000.0,-42.099985040208274,10.552315087212316,NO,1.3
69.20820188522339,1800000000.0,-42.02489279238907,10.545206095779935,NO,1.3
69.6330795288086,1800000000.0,-41.94196798780056,10.555975705776802,NO,1.3
70.06035780906677,1800000000.0,-42.00789637999826,10.56303933252705,NO,1.3
70.47437405586243,1800000000.0,-42.067393698355346,10.546793200680455,NO,1.3
70.89645791053772,1800000000.0,-42.469106960265506,10.614636544319723,NO,1.3
71.30901670455933,1800000000.0,-42.59391625411581,10.641879371009075,NO,1.3
71.73483276367188,1800000000.0,-42.55634767499654,10.606867427249487,NO,1.3
72.15355253219604,1800000000.0,-42.61275757902272,10.594539092733267,NO,1.3
72.57782459259033,1800000000.0,-42.517707268227944,10.602403224143629,NO,1.3
72.98624062538147,1800000000.0,-42.34562951394584,10.613560570875599,NO,1.3
73.40938639640808,1800000000.0,-42.50524828586359,10.591595736496151,NO,1.3
73.83714079856873,1800000000.0,-42.362962596016295,10.595512810937112,NO,1.3
74.25468850135803,1800000000.0,-41.94478477075451,10.610968516790749,NO,1.3
74.66607332229614,1800000000.0,-42.01721388193188,10.60561442415597,NO,1.3
75.09199047088623,1800000000.0,-41.982146690762995,10.591746050053938,NO,1.3
75.5023603439331,1800000000.0,-41.83898930169984,10.599323318492036,NO,1.3
75.93032169342041,1800000000.0,-42.065237909872515,10.602502407579884,NO,1.3
76.34375405311584,1800000000.0,-41.863077627898676,10.599381117431705,NO,1.3
76.77221488952637,1800000000.0,-42.337226621646394,10.58845665956551,NO,1.3
77.18571424484253,1800000000.0,-42.42917058171972,10.589962116501257,NO,1.3
77.60619711875916,1800000000.0,-42.45630169801462,10.610623585267707,NO,1.3
78.01838850975037,1800000000.0,-42.550152243225874,10.581394364507574,NO,1.3
78.44236159324646,1800000000.0,-42.56564383331265,10.576766009225771,NO,1.3
78.85292911529541,1800000000.0,-42.62895333880223,10.57772212818091,NO,1.3
79.29403185844421,1800000000.0,-42.46711688042437,10.57364454168826,NO,1.3
79.7074065208435,1800000000.0,-42.43901464059846,10.613601376991344,NO,1.3
80.13260102272034,1800000000.0,-42.46849499991335,10.59001656779379,NO,1.3
80.55062770843506,1800000000.0,-42.41909058170671,10.616639900696875,NO,1.3
80.98001980781555,1800000000.0,-42.351343980242085,10.607740732506624,NO,1.3
81.39074373245239,1800000000.0,-42.38925682939232,10.614887805314188,NO,1.3
81.81001830101013,1800000000.0,-42.361867902895376,10.615038752796035,NO,1.3
82.22891473770142,1800000000.0,-42.372579327929074,10.618103379786014,NO,1.3
82.64932513237,1800000000.0,-42.38377913068484,10.622332427550905,NO,1.3
83.06126761436462,1800000000.0,-42.427043691691836,10.623252943813826,NO,1.3
83.4843819141388,1800000000.0,-42.3495003433367,10.63435445400668,NO,1.3
83.90188837051392,1800000000.0,-42.23114129413166,10.64069763460485,NO,1.3
84.32326769828796,1800000000.0,-42.33586510431309,10.606074196155324,NO,1.3
84.7342438697815,1800000000.0,-42.4105308109906,10.61571390986781,NO,1.3
85.15680599212646,1800000000.0,-42.73430659560994,10.659659470756427,NO,1.3
85.5743613243103,1800000000.0,-42.108166736269865,10.570523244400931,NO,1.3
86.00602388381958,1800000000.0,-42.0666334031789,10.58305334966725,NO,1.3
86.41869473457336,1800000000.0,-42.211847052830066,10.63294556685873,NO,1.3
86.83524179458618,1800000000.0,-42.254771442268535,10.692222607221877,NO,1.3
87.25001072883606,1800000000.0,-42.31427736952267,10.6690614130897,NO,1.3
87.67128777503967,1800000000.0,-42.171965090034035,10.62043476116113,NO,1.3
88.08489036560059,1800000000.0,-42.158609436255574,10.628341853074165,NO,1.3
88.50120210647583,1800000000.0,-42.30139329724673,10.638570020311992,NO,1.3
88.91008996963501,1800000000.0,-42.3325700104308,10.624334307235417,NO,1.3
89.33459520339966,1800000000.0,-42.444379896530144,10.60965155827166,NO,1.3
89.74595642089844,1800000000.0,-42.26807779594565,10.62872333866462,NO,1.3
90.17488980293274,1800000000.0,-42.24871576702178,10.621011348511736,NO,1.3
90.5920147895813,1800000000.0,-42.2593351214237,10.632642048752725,NO,1.3
91.00884318351746,1800000000.0,-42.267469597657424,10.653199181513163,NO,1.3
91.41684699058533,1800000000.0,-42.33628328328406,10.657080130183804,NO,1.3
91.83476233482361,1800000000.0,-42.359988522025276,10.653412035403404,NO,1.3
92.25624775886536,1800000000.0,-42.346758340429425,10.65401111731741,NO,1.3
92.67613792419434,1800000000.0,-42.27814426937738,10.654872654011015,NO,1.3
93.09565138816833,1800000000.0,-42.351640965949706,10.65226720481364,NO,1.3
93.51488995552063,1800000000.0,-42.30866396216756,10.655862835965365,NO,1.3
93.92511487007141,1800000000.0,-42.37648490281731,10.653497002968027,NO,1.3
94.34513020515442,1800000000.0,-42.359160103605674,10.656356187948695,NO,1.3
94.75587058067322,1800000000.0,-42.38809345560357,10.658590246048758,NO,1.3
95.19150376319885,1800000000.0,-42.381476661051884,10.656013424897363,NO,1.3
95.59990882873535,1800000000.0,-42.35408284753463,10.653131697260541,NO,1.3
96.02539372444153,1800000000.0,-42.368608102888274,10.655428229222647,NO,1.3
96.44142365455627,1800000000.0,-42.24909508191695,10.639574147387735,NO,1.3
96.85704326629639,1800000000.0,-42.19721884234262,10.624235673053086,NO,1.3
97.27971148490906,1800000000.0,-42.49056114013535,10.711664216741275,NO,1.3
97.70176887512207,1800000000.0,-42.345914263606694,10.659621783654039,NO,1.3
98.1104257106781,1800000000.0,-42.42529953231304,10.671934434684614,NO,1.3
98.53284668922424,1800000000.0,-42.49798336281542,10.683463006239272,NO,1.3
98.94770789146423,1800000000.0,-42.47424413962772,10.681763897782261,NO,1.3
99.37635469436646,1800000000.0,-42.48905885212057,10.685919713053423,NO,1.3
99.7852041721344,1800000000.0,-42.46438475742426,10.690403203490051,NO,1.3
100.24864840507507,1800000000.0,-42.53232398487913,10.687831400954087,NO,1.3
100.66992425918579,1800000000.0,-42.45814653946727,10.683841283621474,NO,1.3
101.09661602973938,1800000000.0,-42.50238310317522,10.688139389537156,NO,1.3
101.51353740692139,1800000000.0,-42.500573381123715,10.68569881888786,NO,1.3
101.94126343727112,1800000000.0,-42.19750670782843,10.636749437618118,NO,1.3
102.3729338645935,1800000000.0,-41.828908760926176,10.675799140251389,NO,1.3
102.7990231513977,1800000000.0,-41.76091000028439,10.673154895201996,NO,1.3
103.20920538902283,1800000000.0,-41.82365806511144,10.679542718612446,NO,1.3
103.63012623786926,1800000000.0,-41.79287023017251,10.675713424507375,NO,1.3
104.04541611671448,1800000000.0,-41.71114602448589,10.675652952235382,NO,1.3
104.47510838508606,1800000000.0,-41.765091292180266,10.680079376913913,NO,1.3
104.8943145275116,1800000000.0,-41.717078054323125,10.6775398925922,NO,1.3
105.31615662574768,1800000000.0,-41.73342395384229,10.679575112279093,NO,1.3
105.73852252960205,1800000000.0,-41.73714730279429,10.683144901392092,NO,1.3
106.15874147415161,1800000000.0,-41.8080987372894,10.687632579065745,NO,1.3
106.58130860328674,1800000000.0,-41.78494571210561,10.683054788782595,NO,1.3
107.00894236564636,1800000000.0,-41.92791484820792,10.681248749354996,NO,1.3
107.42475628852844,1800000000.0,-42.515093674036855,10.684650518326109,NO,1.3
107.84640836715698,1800000000.0,-42.42584368064406,10.673518178872792,NO,1.3
108.25968813896179,1800000000.0,-42.463976986182956,10.687478396969446,NO,1.3
108.68558979034424,1800000000.0,-42.50207070632345,10.685950108786797,NO,1.3
109.09892296791077,1800000000.0,-42.47955748556349,10.688419908168438,NO,1.3
109.52892923355103,1800000000.0,-42.40096367666091,10.681379417724468,NO,1.3
109.94957709312439,1800000000.0,-42.519153042009,10.687458301653297,NO,1.3
