Elapsed Time (s),Frequency (Hz),S11 (dB),S21 (dB),OBJ,Height (m)
0.6851682662963867,1800000000.0,-41.78131175423764,2.863764064777916,NO,1.1
1.146789312362671,1800000000.0,-41.624415824235896,2.9717577262615786,NO,1.1
1.6105871200561523,1800000000.0,-41.93456853229247,2.834175845955038,NO,1.1
2.074199914932251,1800000000.0,-41.56297931154335,2.910252399388253,NO,1.1
2.5238938331604004,1800000000.0,-41.670907609639485,3.024951189598442,NO,1.1
2.984356164932251,1800000000.0,-41.90759481008291,2.942551478260124,NO,1.1
3.4382925033569336,1800000000.0,-41.87552974770533,2.961248141375257,NO,1.1
4.01821231842041,1800000000.0,-41.77275039329985,3.0075203140511757,NO,1.1
4.485471248626709,1800000000.0,-41.76031866498157,2.976265844945388,NO,1.1
4.951750993728638,1800000000.0,-41.67270488769386,3.0110233916137155,NO,1.1
5.598919868469238,1800000000.0,-41.79041436659013,2.9940094973764095,NO,1.1
6.146623373031616,1800000000.0,-41.80147212538077,2.982614263742766,NO,1.1
6.680400609970093,1800000000.0,-41.884582987952555,2.9808324826184176,NO,1.1
7.135575532913208,1800000000.0,-41.790438946215986,2.9556762335606717,NO,1.1
7.621110677719116,1800000000.0,-41.79543565801664,2.94627320154391,NO,1.1
8.14792251586914,1800000000.0,-41.763476256729426,2.952530428551345,NO,1.1
8.703807353973389,1800000000.0,-41.83507122559237,2.9868993012653338,NO,1.1
9.181285858154297,1800000000.0,-41.79765607479296,2.989554744555379,NO,1.1
9.671781301498413,1800000000.0,-41.74097039016034,2.993785576693642,NO,1.1
10.280829429626465,1800000000.0,-41.69776866628552,2.943932073371016,NO,1.1
10.740031719207764,1800000000.0,-41.64315483284652,2.9334415377342946,NO,1.1
11.205978631973267,1800000000.0,-41.75920360066567,2.893495367062107,NO,1.1
11.678094148635864,1800000000.0,-41.87597282754527,2.9521310001754486,NO,1.1
12.14389443397522,1800000000.0,-41.82945552450781,3.0225629201359485,NO,1.1
12.66700005531311,1800000000.0,-41.641733797692595,2.85737548244507,NO,1.1
13.265934467315674,1800000000.0,-41.92077253851643,3.083032386748129,NO,1.1
13.800878524780273,1800000000.0,-41.87399649894485,2.8987866072361563,NO,1.1
14.28374457359314,1800000000.0,-42.00638994796624,3.004094171204281,NO,1.1
14.789761781692505,1800000000.0,-41.8214963355927,2.8489586395490276,NO,1.1
15.395013570785522,1800000000.0,-41.935732651019,2.870238606702911,NO,1.1
15.874597311019897,1800000000.0,-41.91427782251747,2.903969350678848,NO,1.1
16.341403484344482,1800000000.0,-41.901716103048834,2.932910368544796,NO,1.1
16.81696653366089,1800000000.0,-41.812971910909916,2.9371183582591476,NO,1.1
17.25997519493103,1800000000.0,-41.91176945624868,2.937053808397312,NO,1.1
17.749308109283447,1800000000.0,-41.90234514390941,2.9183843882122718,NO,1.1
18.28379225730896,1800000000.0,-41.90642601898301,2.9649102333435087,NO,1.1
18.744953870773315,1800000000.0,-41.89724870920334,2.9043626678909353,NO,1.1
19.219934225082397,1800000000.0,-41.8523289194185,2.9148322975195056,NO,1.1
19.6814386844635,1800000000.0,-41.858596044163406,2.9237043433003116,NO,1.1
20.19309639930725,1800000000.0,-41.91547098001759,2.9619685905799904,NO,1.1
20.670918941497803,1800000000.0,-41.853949041976115,2.9223331402319745,NO,1.1
21.172232151031494,1800000000.0,-41.86120541005131,2.9530727018252225,NO,1.1
21.632474184036255,1800000000.0,-41.85439648404551,2.938149393344016,NO,1.1
22.159087419509888,1800000000.0,-41.91786860648144,2.9010015969206915,NO,1.1
22.691230058670044,1800000000.0,-41.83318461398001,2.925086187293388,NO,1.1
23.29279613494873,1800000000.0,-41.862645060753856,2.95083528793394,NO,1.1
23.767887115478516,1800000000.0,-41.91346459810469,2.94623951626215,NO,1.1
24.272167682647705,1800000000.0,-41.86998445278238,2.9527753012917337,NO,1.1
24.74068546295166,1800000000.0,-41.8811616891659,2.9667164477046875,NO,1.1
25.233099222183228,1800000000.0,-41.842563904239825,2.938544617000608,NO,1.1
25.69236660003662,1800000000.0,-41.896349352557706,2.905787691458261,NO,1.1
26.19949197769165,1800000000.0,-41.84852771599572,2.974103974799755,NO,1.1
26.68885827064514,1800000000.0,-41.81168354867332,2.940865451295278,NO,1.1
27.19795250892639,1800000000.0,-41.83751092448371,2.972891302268211,NO,1.1
27.67361068725586,1800000000.0,-41.96624528652464,2.906176526870363,NO,1.1
28.150893449783325,1800000000.0,-41.94241687407931,2.8841548100506804,NO,1.1
28.612428903579712,1800000000.0,-41.88778952911374,2.9208963309599607,NO,1.1
29.068256616592407,1800000000.0,-41.90942507909108,2.913245014181498,NO,1.1
29.530095100402832,1800000000.0,-42.02096075722899,2.8578627796090994,NO,1.1
30.005043268203735,1800000000.0,-41.920974678611245,2.9157626676102204,NO,1.1
30.469534158706665,1800000000.0,-41.93255355549365,2.9232529735851553,NO,1.1
30.95045232772827,1800000000.0,-41.93838441789475,2.892152139955699,NO,1.1
31.451740264892578,1800000000.0,-41.867647491110496,2.9077688998653746,NO,1.1
31.959142684936523,1800000000.0,-41.87527042388896,2.9212045227692167,NO,1.1
32.45117425918579,1800000000.0,-41.90970612634156,2.928827111515818,NO,1.1
33.03630495071411,1800000000.0,-41.91734739695964,2.912225952266871,NO,1.1
33.540334939956665,1800000000.0,-41.95805879728444,2.894391995764007,NO,1.1
34.07082462310791,1800000000.0,-41.91639293034242,2.9319340913932135,NO,1.1
34.65535831451416,1800000000.0,-41.93636520395587,2.899030706545813,NO,1.1
35.136722564697266,1800000000.0,-41.92697284988927,2.908862468784453,NO,1.1
35.604220390319824,1800000000.0,-41.974630905222114,2.8930687380583398,NO,1.1
36.09175229072571,1800000000.0,-41.93672317084092,2.8840313842017933,NO,1.1
36.565717935562134,1800000000.0,-41.901502217748934,2.9155061613465385,NO,1.1
37.07052183151245,1800000000.0,-41.92219246895897,2.9032385913606924,NO,1.1
37.53249478340149,1800000000.0,-41.94170444554304,2.9105297110781345,NO,1.1
37.989954710006714,1800000000.0,-41.92199741797647,2.9116887742582143,NO,1.1
38.46107363700867,1800000000.0,-41.96905020193502,2.912393193993108,NO,1.1
38.910611152648926,1800000000.0,-41.91083602184622,2.9184359603323164,NO,1.1
39.511584520339966,1800000000.0,-41.862560309516866,2.8979454864014227,NO,1.1
40.00946235656738,1800000000.0,-41.89840696209905,2.915961322698602,NO,1.1
40.472817182540894,1800000000.0,-41.93261364899885,2.9116773816353887,NO,1.1
40.93117427825928,1800000000.0,-41.94466300630887,2.9012646169360305,NO,1.1
41.45910310745239,1800000000.0,-41.94044671253147,2.9050024452092242,NO,1.1
41.93048143386841,1800000000.0,-41.93582217666689,2.9004930915902136,NO,1.1
42.38577461242676,1800000000.0,-41.93452621870982,2.8994710318314416,NO,1.1
42.97631573677063,1800000000.0,-41.95088366424162,2.9008603994319735,NO,1.1
43.430986642837524,1800000000.0,-41.94150965402811,2.9115276435372413,NO,1.1
43.889792919158936,1800000000.0,-41.89155442804032,2.907241899580753,NO,1.1
44.3705153465271,1800000000.0,-41.95064828300147,2.9023992749892047,NO,1.1
44.834115743637085,1800000000.0,-41.99622380762088,2.897782427236087,NO,1.1
45.30582118034363,1800000000.0,-41.96090281081004,2.8979697812018292,NO,1.1
45.7826714515686,1800000000.0,-41.99276710412548,2.9026230218714764,NO,1.1
46.2696897983551,1800000000.0,-42.02141981875993,2.903099955858605,NO,1.1
46.73314332962036,1800000000.0,-41.984685918252715,2.8930651167700523,NO,1.1
47.19982624053955,1800000000.0,-41.95713661260413,2.9001277391127793,NO,1.1
47.660900354385376,1800000000.0,-41.94201467517693,2.893609194199333,NO,1.1
48.165923833847046,1800000000.0,-41.969411694154076,2.904369240525057,NO,1.1
48.64132046699524,1800000000.0,-41.94043567978193,2.9032607349160355,NO,1.1
49.24242424964905,1800000000.0,-41.976943154340944,2.902678668427942,NO,1.1
49.8363983631134,1800000000.0,-41.99664400900434,2.9074265851984378,NO,1.1
50.2989227771759,1800000000.0,-41.96398076030417,2.901375920703196,NO,1.1
50.8077335357666,1800000000.0,-41.95193954371992,2.8980109126150326,NO,1.1
51.27310872077942,1800000000.0,-41.91720816156834,2.9001377852431953,NO,1.1
51.729745626449585,1800000000.0,-41.93105038123939,2.903450865330297,NO,1.1
52.208303928375244,1800000000.0,-41.96616095271104,2.8990459207988857,NO,1.1
52.69111680984497,1800000000.0,-41.98374019641983,2.9019473649320577,NO,1.1
53.163806438446045,1800000000.0,-42.00904984697427,2.902645246768698,NO,1.1
53.62586545944214,1800000000.0,-41.988648857819804,2.9007444660460435,NO,1.1
54.1642279624939,1800000000.0,-41.91968956105106,2.9012996535314888,NO,1.1
54.758872509002686,1800000000.0,-41.989200422071406,2.903604327685254,NO,1.1
55.37116050720215,1800000000.0,-41.97732933333196,2.9036302984982827,NO,1.1
55.83222007751465,1800000000.0,-41.951802470299306,2.8997194816808265,NO,1.1
56.31262230873108,1800000000.0,-41.934229233317346,2.8999719738241985,NO,1.1
56.77103519439697,1800000000.0,-41.948661079923966,2.901507501505164,NO,1.1
57.39331603050232,1800000000.0,-42.04703038382615,2.9012266998396576,NO,1.1
57.99097204208374,1800000000.0,-41.98958421047774,2.9038784693555133,NO,1.1
58.453250885009766,1800000000.0,-42.001482061092176,2.900648351921265,NO,1.1
58.930317401885986,1800000000.0,-41.96539832889574,2.9042650848322134,NO,1.1
59.53330063819885,1800000000.0,-42.007054923990964,2.905463643251526,NO,1.1
60.00490379333496,1800000000.0,-41.98315597068391,2.905369137092786,NO,1.1
60.590529680252075,1800000000.0,-41.984709419230455,2.9037290084282747,NO,1.1
61.130043506622314,1800000000.0,-41.986292028868554,2.902220437095707,NO,1.1
61.643733978271484,1800000000.0,-41.97076111854454,2.899594721207407,NO,1.1
62.1057665348053,1800000000.0,-41.989700931430285,2.902674727963679,NO,1.1
62.7046422958374,1800000000.0,-42.0130649814859,2.9020988293800682,NO,1.1
63.18196153640747,1800000000.0,-41.958010818031,2.9012571853791065,NO,1.1
63.66240096092224,1800000000.0,-42.00181115591482,2.902023864971058,NO,1.1
64.20007014274597,1800000000.0,-41.99542077863125,2.9015139643167815,NO,1.1
64.66244602203369,1800000000.0,-42.05928656243748,2.9037428093071496,NO,1.1
65.12062382698059,1800000000.0,-42.0096537732246,2.900217640679687,NO,1.1
65.57694220542908,1800000000.0,-41.98029405196394,2.902413060833278,NO,1.1
66.04054093360901,1800000000.0,-41.999523914082395,2.9033684315902066,NO,1.1
66.49879312515259,1800000000.0,-42.00162041598546,2.902752555564574,NO,1.1
67.0224859714508,1800000000.0,-42.00595735166487,2.903474310319237,NO,1.1
67.50236392021179,1800000000.0,-42.001078470721225,2.903727587420599,NO,1.1
68.0213475227356,1800000000.0,-42.03302596863006,2.905116422784289,NO,1.1
68.6191143989563,1800000000.0,-41.980955841490655,2.9017521608297376,NO,1.1
69.11901044845581,1800000000.0,-42.005495860874895,2.9008691801122426,NO,1.1
69.58177852630615,1800000000.0,-41.98859864242667,2.903532753706679,NO,1.1
70.04808259010315,1800000000.0,-41.92381561595077,2.9040551124504916,NO,1.1
70.50308513641357,1800000000.0,-42.0059375923693,2.90760617142388,NO,1.1
71.03381395339966,1800000000.0,-42.011221370228725,2.9049813734100844,NO,1.1
71.50916028022766,1800000000.0,-42.01019670823932,2.904671526674516,NO,1.1
71.98485350608826,1800000000.0,-42.004779753635574,2.9023187163849884,NO,1.1
72.46347332000732,1800000000.0,-41.99407117424969,2.897622889992074,NO,1.1
72.9225926399231,1800000000.0,-41.98401778919484,2.897276238002369,NO,1.1
73.38936161994934,1800000000.0,-42.018989758709566,2.910307079577316,NO,1.1
73.85970449447632,1800000000.0,-41.97724158392504,2.9024300073437197,NO,1.1
74.46490979194641,1800000000.0,-42.00552432580853,2.9008637472761145,NO,1.1
75.03861141204834,1800000000.0,-41.975239066154664,2.9016827912427128,NO,1.1
75.52838373184204,1800000000.0,-42.0132159031585,2.9020506312388,NO,1.1
76.13104033470154,1800000000.0,-41.981203005258806,2.898097792212621,NO,1.1
76.73180627822876,1800000000.0,-42.045210686842665,2.909482460791147,NO,1.1
77.33421635627747,1800000000.0,-42.01109092423386,2.8998456970655475,NO,1.1
77.92268824577332,1800000000.0,-42.01005109692639,2.9092964772534984,NO,1.1
78.38785004615784,1800000000.0,-42.02080051163114,2.893766885074524,NO,1.1
78.84851837158203,1800000000.0,-42.01222300159803,2.9126669328394206,NO,1.1
79.3147943019867,1800000000.0,-42.01192599330483,2.916116425424145,NO,1.1
79.79419136047363,1800000000.0,-42.00433678181871,2.908127786891014,NO,1.1
80.2804045677185,1800000000.0,-42.02549932959454,2.905107180336034,NO,1.1
80.73704886436462,1800000000.0,-41.98848270062275,2.9099367828739116,NO,1.1
81.22789669036865,1800000000.0,-42.094986316989676,2.9018917058444065,NO,1.1
81.70342063903809,1800000000.0,-41.99633849301732,2.9035232650107257,NO,1.1
82.21444773674011,1800000000.0,-42.0172666464346,2.8988514473833704,NO,1.1
82.73830080032349,1800000000.0,-42.06400942898749,2.9123371180616235,NO,1.1
83.38676643371582,1800000000.0,-41.989186786520776,2.8962184611037816,NO,1.1
83.84636759757996,1800000000.0,-41.99816468086702,2.9026266491731385,NO,1.1
84.36371874809265,1800000000.0,-42.016778645060825,2.9006750040441958,NO,1.1
84.84028053283691,1800000000.0,-42.00872784585358,2.9088358589628416,NO,1.1
85.2937879562378,1800000000.0,-41.97441392765006,2.9045826402011574,NO,1.1
85.80312085151672,1800000000.0,-41.94357686491894,2.8990614896812,NO,1.1
86.24968218803406,1800000000.0,-42.026612589452945,2.907478807261113,NO,1.1
86.85578465461731,1800000000.0,-42.01797146790369,2.89403377044616,NO,1.1
87.31044340133667,1800000000.0,-42.0538556178614,2.9095730477142903,NO,1.1
87.77992796897888,1800000000.0,-41.99750296411399,2.900910471454472,NO,1.1
88.23996806144714,1800000000.0,-41.97427768180589,2.9054703148891363,NO,1.1
88.699453830719,1800000000.0,-41.95434652212717,2.9016821639976738,NO,1.1
89.19923043251038,1800000000.0,-42.01823036870424,2.901639511623486,NO,1.1
89.7965087890625,1800000000.0,-42.03467048095742,2.8994086273251756,NO,1.1
90.2784481048584,1800000000.0,-42.058902936713515,2.9019108744556,NO,1.1
90.82175707817078,1800000000.0,-42.02173117286094,2.9001086964989558,NO,1.1
91.32454824447632,1800000000.0,-42.012529632346904,2.901404708040177,NO,1.1
91.8334710597992,1800000000.0,-42.03789419171208,2.9044412518853986,NO,1.1
92.33744359016418,1800000000.0,-42.07528083241583,2.9020522917166542,NO,1.1
92.80151081085205,1800000000.0,-42.03377566115055,2.902704146457663,NO,1.1
93.31806349754333,1800000000.0,-42.05136900143617,2.903953155725511,NO,1.1
93.92145705223083,1800000000.0,-42.01887239230839,2.900487320047906,NO,1.1
94.37827897071838,1800000000.0,-42.0330619108778,2.90100457693163,NO,1.1
94.87589693069458,1800000000.0,-42.040635000471966,2.9005935778984964,NO,1.1
95.34341287612915,1800000000.0,-42.024558949581845,2.899965198739951,NO,1.1
95.82733082771301,1800000000.0,-42.02064536843207,2.9022652875673307,NO,1.1
96.33176898956299,1800000000.0,-41.99228539563607,2.9003767069445403,NO,1.1
96.81693840026855,1800000000.0,-42.01807081230669,2.8992597623230902,NO,1.1
97.41067671775818,1800000000.0,-41.98565872915818,2.8986847760459122,NO,1.1
98.02422976493835,1800000000.0,-42.03839916085212,2.8983269320018468,NO,1.1
98.52287483215332,1800000000.0,-42.028221924102276,2.8983283694984445,NO,1.1
98.9805645942688,1800000000.0,-42.008951851720155,2.9038672667404426,NO,1.1
99.43903613090515,1800000000.0,-42.04964746136441,2.9056210681783377,NO,1.1
99.92149019241333,1800000000.0,-41.99951870842813,2.903253816280524,NO,1.1
100.38581824302673,1800000000.0,-41.999006561580636,2.9022249786844507,NO,1.1
100.85983920097351,1800000000.0,-42.02364575952615,2.903458799688354,NO,1.1
101.39856123924255,1800000000.0,-42.033870382766516,2.901142673016686,NO,1.1
101.86603307723999,1800000000.0,-42.08160053413674,2.900658588508236,NO,1.1
102.31886029243469,1800000000.0,-42.00254873511955,2.90178535282943,NO,1.1
102.85919451713562,1800000000.0,-42.019699050168256,2.899209198940804,NO,1.1
103.36400890350342,1800000000.0,-42.029504398483546,2.900796731648778,NO,1.1
103.8373429775238,1800000000.0,-42.034921502241474,2.8972988962322015,NO,1.1
104.29112076759338,1800000000.0,-42.036080563897016,2.900443875814111,NO,1.1
104.75555515289307,1800000000.0,-42.05926131571741,2.896792531706004,NO,1.1
105.21295070648193,1800000000.0,-42.07082184401897,2.901788105631258,NO,1.1
105.70348167419434,1800000000.0,-42.090066197371925,2.904616413909272,NO,1.1
106.19390869140625,1800000000.0,-42.05321650950297,2.8987106633920434,NO,1.1
106.70776629447937,1800000000.0,-42.00466342691831,2.90264446524381,NO,1.1
107.16332077980042,1800000000.0,-42.04230599194496,2.900733262890604,NO,1.1
107.76452231407166,1800000000.0,-42.0194402970506,2.8978599798031546,NO,1.1
108.28937244415283,1800000000.0,-42.01907228527196,2.9021297316798087,NO,1.1
108.91949677467346,1800000000.0,-41.97010504793238,2.9066353856335434,NO,1.1
109.38939809799194,1800000000.0,-42.018802201515484,2.9044930123194446,NO,1.1
109.92357468605042,1800000000.0,-42.0269720401626,2.9005571201254945,NO,1.1
110.38183379173279,1800000000.0,-42.03464142419862,2.896615549756425,NO,1.1
110.84019732475281,1800000000.0,-42.0386099816989,2.9034985131118383,NO,1.1
111.30234670639038,1800000000.0,-42.03159879263509,2.9019948370559274,NO,1.1
111.78561162948608,1800000000.0,-42.041254862347856,2.900849887570811,NO,1.1
112.2491283416748,1800000000.0,-42.00423068558807,2.9003216624141643,NO,1.1
112.71296000480652,1800000000.0,-42.02064528825389,2.9058347736198753,NO,1.1
113.17408061027527,1800000000.0,-42.05255432077868,2.9032105883502823,NO,1.1
113.64521908760071,1800000000.0,-42.01747207005721,2.9109229988794882,NO,1.1
114.11040902137756,1800000000.0,-42.064852511015694,2.9055174712284995,NO,1.1
114.6050226688385,1800000000.0,-42.01294770736816,2.9101144212555035,NO,1.1
115.06521129608154,1800000000.0,-42.01726413073145,2.904818041761415,NO,1.1
115.52697396278381,1800000000.0,-42.04261675285118,2.907815863463834,NO,1.1
115.98584461212158,1800000000.0,-42.078994260034335,2.9083807265397175,NO,1.1
116.44894170761108,1800000000.0,-42.026926505904385,2.9045743353991056,NO,1.1
116.94561290740967,1800000000.0,-42.01349999178489,2.9092169084557726,NO,1.1
117.55384540557861,1800000000.0,-41.95879405209217,2.908381984097814,NO,1.1
118.16477608680725,1800000000.0,-42.01089938252417,2.9072898090994004,NO,1.1
118.76419043540955,1800000000.0,-42.03493549274245,2.9091565452697465,NO,1.1
119.22669911384583,1800000000.0,-42.04624513816227,2.904951809127338,NO,1.1
119.68474221229553,1800000000.0,-42.02758469504314,2.9074899490176938,NO,1.1
120.16035771369934,1800000000.0,-42.00656233209773,2.905611340955369,NO,1.1
120.6564450263977,1800000000.0,-42.02654450904794,2.9041994601362675,NO,1.1
121.19154834747314,1800000000.0,-42.03325263713463,2.9028405184571007,NO,1.1
121.64789652824402,1800000000.0,-42.02095277663502,2.90288322545062,NO,1.1
122.16682004928589,1800000000.0,-42.07706876050367,2.9076522246784298,NO,1.1
122.64384698867798,1800000000.0,-42.05177710537858,2.9048446689367258,NO,1.1
123.1192364692688,1800000000.0,-42.0405355385394,2.90723081323104,NO,1.1
123.62808418273926,1800000000.0,-42.05005921833205,2.905503590951243,NO,1.1
124.23587965965271,1800000000.0,-42.0190984054435,2.906144233083559,NO,1.1
124.73135757446289,1800000000.0,-42.085170151717676,2.9032687881175367,NO,1.1
125.25125503540039,1800000000.0,-42.08079123767567,2.906152084816843,NO,1.1
125.71404814720154,1800000000.0,-42.09200311734551,2.904636490327423,NO,1.1
126.1969051361084,1800000000.0,-42.04066921800825,2.906054053488872,NO,1.1
126.65743279457092,1800000000.0,-42.04504663571677,2.908412914445986,NO,1.1
127.12124514579773,1800000000.0,-42.10511635234306,2.909549373720455,NO,1.1
127.57126998901367,1800000000.0,-42.024314487032356,2.9082658018880263,NO,1.1
128.09504985809326,1800000000.0,-42.03659402342724,2.9084248840819686,NO,1.1
128.56995224952698,1800000000.0,-42.028546260244724,2.9087409649657903,NO,1.1
129.02814388275146,1800000000.0,-42.06232981600682,2.906868303003764,NO,1.1
129.5557723045349,1800000000.0,-42.1026786220072,2.908555416307039,NO,1.1
130.1313407421112,1800000000.0,-42.08779738717993,2.9089975138081354,NO,1.1
130.63804244995117,1800000000.0,-42.083290125368926,2.9033648597088173,NO,1.1
131.111896276474,1800000000.0,-42.034931832502394,2.9038722479373833,NO,1.1
