Elapsed Time (s),Frequency (Hz),S11 (dB),S21 (dB),OBJ,Height (m)
0.5316617488861084,1800000000.0,-37.9368627546319,1.9158082603410658,YES,1.1
0.9818012714385986,1800000000.0,-37.96541267088463,1.5467701663695137,YES,1.1
1.4367859363555908,1800000000.0,-37.93573745177201,1.9063024945104454,YES,1.1
1.9355909824371338,1800000000.0,-37.95836204701818,1.9202093719437503,YES,1.1
2.388211965560913,1800000000.0,-37.94214265587259,1.8420016402284851,YES,1.1
2.992525339126587,1800000000.0,-38.000400798248386,1.9511174625815983,YES,1.1
3.4497053623199463,1800000000.0,-37.95203698964964,1.9573451433274316,YES,1.1
3.9060025215148926,1800000000.0,-38.29996127174576,1.7664224443918195,YES,1.1
4.51428747177124,1800000000.0,-37.9756268084146,1.8670472408475114,YES,1.1
4.999552249908447,1800000000.0,-37.970789369448156,1.9030892419117797,YES,1.1
5.442810535430908,1800000000.0,-38.162919439404355,1.9268627334877237,YES,1.1
5.945912837982178,1800000000.0,-37.998009611787836,1.5314747532433424,YES,1.1
6.447148323059082,1800000000.0,-37.884986109757996,1.5952469521441917,YES,1.1
6.946845769882202,1800000000.0,-38.165844369410024,1.7058518149449946,YES,1.1
7.470401287078857,1800000000.0,-38.36559217539373,1.9484243154067689,YES,1.1
7.921371221542358,1800000000.0,-38.3617405544946,1.8681651205544603,YES,1.1
8.40576171875,1800000000.0,-38.33358280914106,1.8395913574058391,YES,1.1
8.941540718078613,1800000000.0,-38.22644605734241,1.8568518087397163,YES,1.1
9.442201375961304,1800000000.0,-38.03586508018283,2.0449565411923274,YES,1.1
9.886369705200195,1800000000.0,-37.98955994762197,2.1199530031240297,YES,1.1
10.330933332443237,1800000000.0,-38.09026967338438,2.157502041918412,YES,1.1
10.809305906295776,1800000000.0,-38.05370580343506,2.149411503921196,YES,1.1
11.256083488464355,1800000000.0,-38.07366025237093,2.147234821633533,YES,1.1
11.740517139434814,1800000000.0,-38.05265288502937,2.223263382311341,YES,1.1
12.250789880752563,1800000000.0,-38.2183201396774,1.9323757677839826,YES,1.1
12.700299501419067,1800000000.0,-38.43128332208956,1.6780754993735234,YES,1.1
13.151483535766602,1800000000.0,-38.292673718025405,1.7271621183815054,YES,1.1
13.612700939178467,1800000000.0,-38.31610803129462,1.5947653004717923,YES,1.1
14.095487356185913,1800000000.0,-38.01698157848498,1.6421263571597269,YES,1.1
14.545322895050049,1800000000.0,-38.033702110805606,1.7723185464972482,YES,1.1
14.993330478668213,1800000000.0,-38.026016536588365,2.0749243823102725,YES,1.1
15.446013927459717,1800000000.0,-38.03584433444297,1.7832575119410339,YES,1.1
15.956904172897339,1800000000.0,-38.19721369836464,1.8548815895428894,YES,1.1
16.404910564422607,1800000000.0,-38.08106145788408,1.8038501717098865,YES,1.1
16.855653524398804,1800000000.0,-38.0729529341651,1.9401777712836155,YES,1.1
17.333777904510498,1800000000.0,-38.06282148850413,1.9886091048703554,YES,1.1
17.79896330833435,1800000000.0,-38.18488385972839,1.8702106603514845,YES,1.1
18.249213218688965,1800000000.0,-37.9010563486947,1.8787155705777538,YES,1.1
18.742359399795532,1800000000.0,-38.02036805336354,1.9254403014769192,YES,1.1
19.211866855621338,1800000000.0,-37.937598946989624,1.9311545209043022,YES,1.1
19.654300689697266,1800000000.0,-38.35529220254425,1.7907606252448534,YES,1.1
20.100188970565796,1800000000.0,-38.11476796080932,2.0536207220490215,YES,1.1
20.548041820526123,1800000000.0,-37.8869926614566,1.8830227616095891,YES,1.1
21.096144199371338,1800000000.0,-38.043243471269356,1.9318500854615717,YES,1.1
21.585425853729248,1800000000.0,-38.0673204187142,1.9539027016330943,YES,1.1
22.065247058868408,1800000000.0,-38.13443287548213,1.9217783179789973,YES,1.1
22.51276659965515,1800000000.0,-37.963974903199414,1.9271651024757515,YES,1.1
22.9835786819458,1800000000.0,-38.07061203442309,1.912675091428142,YES,1.1
23.479143857955933,1800000000.0,-38.11105447565762,1.843881799012953,YES,1.1
23.93408465385437,1800000000.0,-38.170882900070076,1.9209230075824806,YES,1.1
24.39652419090271,1800000000.0,-38.11879205039918,1.9387617944570947,YES,1.1
24.84211277961731,1800000000.0,-38.07514707888181,1.9250470648645974,YES,1.1
25.323679208755493,1800000000.0,-38.04684637813037,1.9279860716281514,YES,1.1
25.78267741203308,1800000000.0,-38.05051919456767,1.924076736730157,YES,1.1
26.22942805290222,1800000000.0,-38.07297189933008,1.9299290125509858,YES,1.1
26.671454191207886,1800000000.0,-38.04336477192948,1.943258766351836,YES,1.1
27.148666858673096,1800000000.0,-38.08780885117145,1.9366276018913888,YES,1.1
27.70799446105957,1800000000.0,-38.11855730731033,1.9435635083203537,YES,1.1
28.151538610458374,1800000000.0,-38.07689044667034,1.9299282311417096,YES,1.1
28.59700584411621,1800000000.0,-37.97671071150667,1.9083145795125631,YES,1.1
29.037768840789795,1800000000.0,-37.96791994850361,1.8992309530217797,YES,1.1
29.478116273880005,1800000000.0,-37.98815021537753,1.8962923767799957,YES,1.1
29.919223070144653,1800000000.0,-37.97817768210901,1.8960862709742055,YES,1.1
30.442384719848633,1800000000.0,-37.96554474575065,1.8826025735113756,YES,1.1
30.883957386016846,1800000000.0,-37.99028862986119,1.8897201604905467,YES,1.1
31.338021993637085,1800000000.0,-37.97012706979492,1.8867416312731302,YES,1.1
31.780749559402466,1800000000.0,-37.96857022610414,1.8909786217176117,YES,1.1
32.22234129905701,1800000000.0,-37.948894669351795,1.8946682633468173,YES,1.1
32.66992950439453,1800000000.0,-37.98716143068171,1.8944587407743092,YES,1.1
33.12423062324524,1800000000.0,-37.9719314262235,1.9023718452924303,YES,1.1
33.59927248954773,1800000000.0,-38.01636963593002,1.9797257100127625,YES,1.1
34.03829503059387,1800000000.0,-38.07319861823399,1.9693622623951945,YES,1.1
34.5015652179718,1800000000.0,-38.05999537292378,2.009509902666771,YES,1.1
34.98179602622986,1800000000.0,-38.03054682734725,1.8627440373778816,YES,1.1
35.43864560127258,1800000000.0,-38.02089035467381,1.8615937257385466,YES,1.1
35.887831687927246,1800000000.0,-38.03377348080734,1.870180454779729,YES,1.1
36.50006628036499,1800000000.0,-37.99690537274272,1.8995221198407806,YES,1.1
36.94316840171814,1800000000.0,-38.02724004799648,1.9145830710999214,YES,1.1
37.388038635253906,1800000000.0,-38.00287969447396,1.879391943086113,YES,1.1
37.832154750823975,1800000000.0,-38.017184293473235,1.896932879714896,YES,1.1
38.27460694313049,1800000000.0,-38.01432169524888,1.8904752851390405,YES,1.1
38.72709369659424,1800000000.0,-38.0168469762704,1.8868963960173155,YES,1.1
39.185608863830566,1800000000.0,-38.05170200563107,1.897296258610221,YES,1.1
39.6369686126709,1800000000.0,-38.028103502496705,1.9071901043744546,YES,1.1
40.07846927642822,1800000000.0,-38.01461246152994,1.9002913703048543,YES,1.1
40.539639711380005,1800000000.0,-38.02602359048623,1.902215008372391,YES,1.1
41.040029764175415,1800000000.0,-38.02351918027561,1.9154498608843873,YES,1.1
41.62402391433716,1800000000.0,-38.0213621091704,1.9225436940839333,YES,1.1
42.087388038635254,1800000000.0,-38.00357471155466,1.9304236835168256,YES,1.1
42.63988018035889,1800000000.0,-37.99467696119806,1.937857890161097,YES,1.1
43.10280394554138,1800000000.0,-38.02220923227204,1.9576246276104845,YES,1.1
43.59565877914429,1800000000.0,-37.991311808408426,1.9673450212230057,YES,1.1
44.039626121520996,1800000000.0,-38.00999157848003,1.9691672483002058,YES,1.1
44.55307650566101,1800000000.0,-37.98716707807326,1.9693271752226205,YES,1.1
45.00704503059387,1800000000.0,-37.997611686655695,1.9435624913678322,YES,1.1
45.46938920021057,1800000000.0,-37.99235533288907,1.9247455223601582,YES,1.1
46.06543684005737,1800000000.0,-37.99488272749427,1.9253778451779797,YES,1.1
46.56357526779175,1800000000.0,-37.97422206453191,1.908031619231432,YES,1.1
47.11975288391113,1800000000.0,-38.01286316918397,1.9077759032404416,YES,1.1
47.60151958465576,1800000000.0,-37.9778552838905,1.9398520771435843,YES,1.1
48.05445432662964,1800000000.0,-37.970362249511965,1.9556982544386672,YES,1.1
48.52612090110779,1800000000.0,-38.01830787419889,1.9609674893802564,YES,1.1
48.982617139816284,1800000000.0,-38.00501404637121,1.9684958601254385,YES,1.1
49.44002389907837,1800000000.0,-38.02629529966514,1.9718666632975836,YES,1.1
49.898422718048096,1800000000.0,-38.02760202635427,1.9624950457074068,YES,1.1
50.36256384849548,1800000000.0,-38.00443272529161,1.957451280993365,YES,1.1
50.81049466133118,1800000000.0,-38.026801685014824,1.9583951220616649,YES,1.1
51.256596088409424,1800000000.0,-38.02728263309671,1.9477178859259165,YES,1.1
51.76539897918701,1800000000.0,-38.02263877577965,1.9347719023694072,YES,1.1
52.21689558029175,1800000000.0,-37.99634825297413,1.9288740309835941,YES,1.1
52.731080532073975,1800000000.0,-38.01767806541409,1.92041960172354,YES,1.1
53.20689797401428,1800000000.0,-38.032733557809316,1.9188982213315773,YES,1.1
53.657087326049805,1800000000.0,-38.026271990427276,1.9378342889555538,YES,1.1
54.175010442733765,1800000000.0,-38.02969555913383,1.959190144046358,YES,1.1
54.63578820228577,1800000000.0,-38.02586091069487,1.959294827374317,YES,1.1
55.10455918312073,1800000000.0,-38.0026235853347,1.9502555426068766,YES,1.1
55.55751943588257,1800000000.0,-37.9999882448007,1.938462923773432,YES,1.1
56.04477119445801,1800000000.0,-38.004290396153536,1.916256866788379,YES,1.1
56.500043869018555,1800000000.0,-37.97939122225976,1.9113584753723012,YES,1.1
56.9850287437439,1800000000.0,-37.98058825007548,1.9131995846117427,YES,1.1
57.572004318237305,1800000000.0,-38.00723253714772,1.9031428389427023,YES,1.1
58.156139850616455,1800000000.0,-37.98868775304045,1.9238035024778486,YES,1.1
58.60484313964844,1800000000.0,-37.97859185315837,1.920104880984862,YES,1.1
59.117571115493774,1800000000.0,-37.95966472932401,1.8995838210705798,YES,1.1
59.63703942298889,1800000000.0,-37.99306160122122,1.918429517959368,YES,1.1
60.09310746192932,1800000000.0,-37.95137295553103,1.9146294829479777,YES,1.1
60.603105306625366,1800000000.0,-37.825701261627856,1.9186589555786817,YES,1.1
61.0842502117157,1800000000.0,-37.88228299345002,1.9312636797559524,YES,1.1
61.53522062301636,1800000000.0,-37.865462270295566,1.9509635853151397,YES,1.1
62.04395127296448,1800000000.0,-37.87342064560325,1.951632215714937,YES,1.1
62.514816999435425,1800000000.0,-37.8711085348085,1.947828970042465,YES,1.1
63.016406297683716,1800000000.0,-37.85292825317464,1.944685897282544,YES,1.1
63.48857021331787,1800000000.0,-37.85311449105994,1.9529475286720905,YES,1.1
63.93889379501343,1800000000.0,-37.87914501885925,1.9603892538348942,YES,1.1
64.40273427963257,1800000000.0,-37.86739479493237,1.963503343213095,YES,1.1
64.84632086753845,1800000000.0,-37.86312333216103,1.9636859505725845,YES,1.1
65.31135272979736,1800000000.0,-37.84676478503605,1.9774045748989908,YES,1.1
65.7736439704895,1800000000.0,-37.87465783607297,1.968184427717312,YES,1.1
66.22292017936707,1800000000.0,-37.88666498033863,1.9700886783959617,YES,1.1
66.7171745300293,1800000000.0,-37.913115430605,1.981546722452423,YES,1.1
67.31841397285461,1800000000.0,-37.86105286177324,1.9768045022387275,YES,1.1
67.78197288513184,1800000000.0,-37.86050951938253,1.9581336426760807,YES,1.1
68.22555041313171,1800000000.0,-37.845599633129325,1.9646905005951076,YES,1.1
68.6720142364502,1800000000.0,-37.855209455044736,1.9512673685915667,YES,1.1
69.2097020149231,1800000000.0,-37.865733046298196,1.9640124916353738,YES,1.1
69.66356205940247,1800000000.0,-37.8499211180804,1.9528178468772723,YES,1.1
70.12645030021667,1800000000.0,-37.83381319917432,1.9559900450140715,YES,1.1
70.59213709831238,1800000000.0,-37.80828415008067,1.9767897079671968,YES,1.1
71.16909599304199,1800000000.0,-37.87873805551941,1.9840577272680495,YES,1.1
71.66243290901184,1800000000.0,-37.8397814867325,1.9760022959184698,YES,1.1
72.14149332046509,1800000000.0,-37.882072961583866,1.9510756726091405,YES,1.1
72.60962891578674,1800000000.0,-37.8308821582597,1.9900426444099126,YES,1.1
73.07819890975952,1800000000.0,-37.88329165758637,1.9597887487266208,YES,1.1
73.55834460258484,1800000000.0,-37.92380543107553,1.9798127637819454,YES,1.1
73.99746227264404,1800000000.0,-37.87008823471629,1.9642645297869197,YES,1.1
74.4477927684784,1800000000.0,-37.894348208213906,1.9846269660124414,YES,1.1
74.88898730278015,1800000000.0,-37.87179664774547,2.004418996375204,YES,1.1
75.33079767227173,1800000000.0,-37.882328923343344,1.991924967024373,YES,1.1
75.78913950920105,1800000000.0,-37.81583069056601,1.99795885048045,YES,1.1
76.23631858825684,1800000000.0,-37.83964657394584,1.9996199450914085,YES,1.1
76.70209527015686,1800000000.0,-37.82557182673226,1.9863496957928584,YES,1.1
77.14704704284668,1800000000.0,-37.858162617169825,1.9931045128722285,YES,1.1
77.60449647903442,1800000000.0,-37.864980015841645,2.0009214782562497,YES,1.1
78.04387998580933,1800000000.0,-37.87239345949498,2.005048518715186,YES,1.1
78.51727652549744,1800000000.0,-37.963310931282734,1.9761524174392509,YES,1.1
78.95972037315369,1800000000.0,-37.959406743949934,1.9417709100381342,YES,1.1
79.40953087806702,1800000000.0,-37.91337897884943,1.9271759378785829,YES,1.1
79.88965892791748,1800000000.0,-37.91874775040736,1.9192542440903688,YES,1.1
80.33881187438965,1800000000.0,-37.92264826257678,1.9153058774586582,YES,1.1
80.84448194503784,1800000000.0,-37.932094081797125,1.9154829264510513,YES,1.1
81.2883768081665,1800000000.0,-37.89214697381805,1.9289316433261592,YES,1.1
81.82943201065063,1800000000.0,-37.92178754473346,1.916715679706461,YES,1.1
82.3656234741211,1800000000.0,-37.88080022670727,1.9163759975895758,YES,1.1
82.80542659759521,1800000000.0,-37.87900036125388,1.9079418289163654,YES,1.1
83.35224747657776,1800000000.0,-37.900369243115705,1.9142417236755849,YES,1.1
83.83131098747253,1800000000.0,-37.90295382834848,1.9194407172259074,YES,1.1
84.27122640609741,1800000000.0,-37.89001570511515,1.9183464009208417,YES,1.1
84.79006552696228,1800000000.0,-37.94070080851394,1.9217727071252033,YES,1.1
85.26851177215576,1800000000.0,-37.90215070879742,1.9179054556782855,YES,1.1
85.73482322692871,1800000000.0,-37.8797977335998,1.9235511543430133,YES,1.1
86.18503165245056,1800000000.0,-37.90848405431862,1.924625454528949,YES,1.1
86.68784618377686,1800000000.0,-37.902419220163395,1.9067790926631987,YES,1.1
87.13171172142029,1800000000.0,-37.91492052857399,1.9201652375490483,YES,1.1
87.71151876449585,1800000000.0,-37.886726478992955,1.9098554746806786,YES,1.1
88.17160487174988,1800000000.0,-37.89450356464955,1.8970038401712888,YES,1.1
88.76537227630615,1800000000.0,-37.90613232158554,1.9082893804604837,YES,1.1
89.20673489570618,1800000000.0,-37.8904613648474,1.9018993803349635,YES,1.1
89.72364163398743,1800000000.0,-37.92953777931126,1.9226237454129322,YES,1.1
90.18060612678528,1800000000.0,-37.968227066504284,1.9244486920799286,YES,1.1
90.7449643611908,1800000000.0,-37.91723269478644,1.9236336334383752,YES,1.1
91.18513751029968,1800000000.0,-37.93983042631611,1.921817071478563,YES,1.1
91.62609076499939,1800000000.0,-37.90377690225847,1.9229887152781842,YES,1.1
92.069589138031,1800000000.0,-37.89468990390395,1.921885496949548,YES,1.1
92.57134771347046,1800000000.0,-37.87897251715512,1.9255738325394138,YES,1.1
93.01595878601074,1800000000.0,-37.89231350268781,1.9226338538819272,YES,1.1
93.45437431335449,1800000000.0,-37.889652161440424,1.9091710540971993,YES,1.1
93.99716830253601,1800000000.0,-37.87098403595604,1.9215940815954218,YES,1.1
94.44815397262573,1800000000.0,-37.907894001111686,1.9010611310051664,YES,1.1
94.90170884132385,1800000000.0,-37.892164229247335,1.9185190142602218,YES,1.1
95.3489248752594,1800000000.0,-37.887393365587286,1.909887168312709,YES,1.1
95.82984781265259,1800000000.0,-37.87858353250744,1.9280859330926938,YES,1.1
96.26739740371704,1800000000.0,-37.91835582414014,1.9252971450381722,YES,1.1
96.71740984916687,1800000000.0,-37.89318280639464,1.916094823500377,YES,1.1
97.16114354133606,1800000000.0,-37.90808899237072,1.910320744196934,YES,1.1
97.6322751045227,1800000000.0,-37.8547524421457,1.968275599543996,YES,1.1
98.07337856292725,1800000000.0,-37.88503318181874,1.9661288506518668,YES,1.1
98.60639476776123,1800000000.0,-37.9643549486117,1.9155683966520254,YES,1.1
99.1870744228363,1800000000.0,-37.927895914465196,2.011196975328136,YES,1.1
99.65889930725098,1800000000.0,-37.79150039823478,1.8925558050217623,YES,1.1
100.10320448875427,1800000000.0,-37.882741030630484,1.905358560106014,YES,1.1
100.62175846099854,1800000000.0,-37.82519571176039,1.857551314615543,YES,1.1
101.0708396434784,1800000000.0,-37.84461884055172,1.8451888876194824,YES,1.1
101.52070307731628,1800000000.0,-37.899373124697426,1.8364986477838994,YES,1.1
101.96211433410645,1800000000.0,-37.844105087832205,1.8510494678627973,YES,1.1
102.41262149810791,1800000000.0,-37.83413805344932,1.8495463817382274,YES,1.1
102.88981366157532,1800000000.0,-37.85995949642369,1.8413739652701786,YES,1.1
103.34726309776306,1800000000.0,-37.83532622410044,1.8527630606919485,YES,1.1
103.80756402015686,1800000000.0,-37.832936358312125,1.8611884569371464,YES,1.1
104.25277471542358,1800000000.0,-37.86926619363386,1.8585538541714013,YES,1.1
104.70228958129883,1800000000.0,-37.85543953084759,1.8377432612454683,YES,1.1
105.21380233764648,1800000000.0,-37.87920347884129,1.8420055049704864,YES,1.1
105.6530487537384,1800000000.0,-37.86519642968284,1.8203309388784215,YES,1.1
106.13271641731262,1800000000.0,-37.84932395420043,1.8286605934563216,YES,1.1
106.60627293586731,1800000000.0,-37.841187238730896,1.8425333673077242,YES,1.1
107.10260319709778,1800000000.0,-37.89337009473064,1.858338794486517,YES,1.1
107.61560678482056,1800000000.0,-37.83111569605255,1.8504503307698803,YES,1.1
108.07787561416626,1800000000.0,-37.787721065647716,1.843325463856313,YES,1.1
108.51749181747437,1800000000.0,-37.86250643502323,1.8418659526750756,YES,1.1
108.96368551254272,1800000000.0,-37.92004388257412,1.9022497382907653,YES,1.1
109.40571713447571,1800000000.0,-37.911503040052416,1.876646004242584,YES,1.1
109.84446811676025,1800000000.0,-37.855447316577575,1.8722723623039559,YES,1.1
110.29141092300415,1800000000.0,-37.84572329547929,1.8511077128818396,YES,1.1
110.78436541557312,1800000000.0,-37.932755737005586,1.8308619650936806,YES,1.1
111.23705959320068,1800000000.0,-37.909027509150384,1.8473232488096563,YES,1.1
111.7896625995636,1800000000.0,-37.932969342366896,1.8821562258642597,YES,1.1
112.31224226951599,1800000000.0,-37.951197994060266,1.8621433360791864,YES,1.1
112.83636617660522,1800000000.0,-37.87882809253477,1.8678114444677578,YES,1.1
113.30622386932373,1800000000.0,-37.891648396129284,1.8542774286278,YES,1.1
113.7627387046814,1800000000.0,-37.91073703203992,1.866005179081904,YES,1.1
114.21229982376099,1800000000.0,-37.85256883307194,1.8363174467434498,YES,1.1
114.67110466957092,1800000000.0,-37.90345641415197,1.8482354183474616,YES,1.1
115.16907262802124,1800000000.0,-37.87129190879965,1.8541642144265555,YES,1.1
115.66329407691956,1800000000.0,-37.97399355753838,1.9497439912592247,YES,1.1
116.12503695487976,1800000000.0,-37.97474871435181,1.996570363879041,YES,1.1
116.58198833465576,1800000000.0,-37.91858667898426,1.9724000516903621,YES,1.1
117.03209590911865,1800000000.0,-38.02469638891353,1.9764402566835022,YES,1.1
117.5940113067627,1800000000.0,-37.994903479928226,2.0076298486199557,YES,1.1
118.03651213645935,1800000000.0,-37.9901319867822,1.9633042777766194,YES,1.1
118.56372952461243,1800000000.0,-38.01410575031611,1.9777547775809736,YES,1.1
119.0180995464325,1800000000.0,-37.97338904523826,1.9466459973254802,YES,1.1
119.57526683807373,1800000000.0,-37.9789925357516,1.9629810282878177,YES,1.1
120.03193426132202,1800000000.0,-38.00228989615606,1.9837658803249223,YES,1.1
120.49420285224915,1800000000.0,-37.979580421573765,2.0002115792857285,YES,1.1
120.94629120826721,1800000000.0,-38.00546744875449,1.9872736515492673,YES,1.1
121.4004008769989,1800000000.0,-38.039423000575134,1.9857973457597933,YES,1.1
121.847651720047,1800000000.0,-37.959332210237605,2.0087356148331095,YES,1.1
122.4458703994751,1800000000.0,-37.96598406646402,2.0122007669851225,YES,1.1
123.02879500389099,1800000000.0,-37.94977602936465,2.0812873537577534,YES,1.1
