Elapsed Time (s),Frequency (Hz),S11 (dB),S21 (dB),OBJ,Height (m)
0.27679944038391113,2000000000.0,-43.27640000932563,-21.92635879252032,NO,0.0
0.6035161018371582,2000000000.0,-43.39976345431254,-21.200960104797396,NO,0.0
0.9232072830200195,2000000000.0,-43.62559046666619,-20.099782541128132,NO,0.0
1.2414965629577637,2000000000.0,-44.016090616744,-12.250877697569404,NO,0.0
1.556654691696167,2000000000.0,-42.94639523784674,-7.314079317503333,NO,0.0
1.8736944198608398,2000000000.0,-43.91242480091462,-7.26987416192472,NO,0.0
2.1907176971435547,2000000000.0,-45.69388046068263,-22.05525803270509,NO,0.0
2.506082534790039,2000000000.0,-44.20640050942171,-8.177329557883244,NO,0.0
2.821650743484497,2000000000.0,-45.37679945031815,-6.756952692608933,NO,0.0
3.1394259929656982,2000000000.0,-47.17807117088566,-11.405018502472565,NO,0.0
3.4531400203704834,2000000000.0,-46.55257076210435,-7.8207592402389015,NO,0.0
3.7834055423736572,2000000000.0,-44.69435710634993,-11.939426837892375,NO,0.0
4.107996702194214,2000000000.0,-44.724893118106415,-9.368633836565193,NO,0.0
4.422023296356201,2000000000.0,-46.15134022333517,-10.934889346739158,NO,0.0
4.736101865768433,2000000000.0,-45.73551348569781,-9.465079721951547,NO,0.0
5.060547351837158,2000000000.0,-47.453384245472215,-15.34242522292577,NO,0.0
5.375502586364746,2000000000.0,-46.79359720782656,-22.805289329809597,NO,0.0
5.705284595489502,2000000000.0,-46.86561807470643,-23.94445153386703,NO,0.0
6.015983581542969,2000000000.0,-47.24928714152652,-12.208246367422744,NO,0.0
6.334879636764526,2000000000.0,-44.676090974678985,-9.61285116952752,NO,0.0
6.648900032043457,2000000000.0,-44.48776980394919,-8.176268579704344,NO,0.0
6.962385892868042,2000000000.0,-45.246095408018505,-7.478379898551426,NO,0.0
7.282222270965576,2000000000.0,-45.53032664646299,-7.9139520830827434,NO,0.0
7.604862689971924,2000000000.0,-46.071035160719724,-7.977470665033348,NO,0.0
7.924496412277222,2000000000.0,-45.742911666736966,-7.619198121965373,NO,0.0
8.248769998550415,2000000000.0,-45.03726931189405,-7.480459674191059,NO,0.0
8.570396184921265,2000000000.0,-45.25391478528198,-7.372490628564013,NO,0.0
8.900079727172852,2000000000.0,-44.57642154191031,-7.357536789152127,NO,0.0
9.22162652015686,2000000000.0,-46.520046690293704,-22.198695313866146,NO,0.0
9.544608116149902,2000000000.0,-45.0006655610871,-15.193251689187823,NO,0.0
9.867440938949585,2000000000.0,-43.30867474263319,-13.66826726561402,NO,0.0
10.185107231140137,2000000000.0,-43.36997733151857,-10.177579405350361,NO,0.0
10.499749660491943,2000000000.0,-43.255397091030716,-8.357476247626074,NO,0.0
10.824134111404419,2000000000.0,-43.27187664163793,-7.957577820654766,NO,0.0
11.143818378448486,2000000000.0,-43.38736669643728,-7.921221450529169,NO,0.0
11.461358308792114,2000000000.0,-43.18781766951825,-7.433765677836406,NO,0.0
11.78515625,2000000000.0,-43.29434402351452,-7.36908692272741,NO,0.0
12.110908031463623,2000000000.0,-43.255931735230185,-7.335471177845837,NO,0.0
12.428760528564453,2000000000.0,-43.23489515123592,-7.117490883779432,NO,0.0
12.752856492996216,2000000000.0,-43.26032772791572,-7.123396731365823,NO,0.0
13.074888944625854,2000000000.0,-43.10345147770895,-8.085440975533569,NO,0.0
13.400483846664429,2000000000.0,-43.18551992380595,-8.51749799220905,NO,0.0
13.722963333129883,2000000000.0,-43.14202804134368,-8.531508439426078,NO,0.0
14.051302909851074,2000000000.0,-43.07670890924611,-8.686128637155557,NO,0.0
14.374541997909546,2000000000.0,-43.03339734850239,-11.012480314031748,NO,0.0
14.701742887496948,2000000000.0,-43.10085523884918,-13.173383567210575,NO,0.0
15.035824060440063,2000000000.0,-43.1625556293327,-19.93654783729618,NO,0.0
15.35451054573059,2000000000.0,-43.32552594199769,-30.11141917889708,NO,0.0
15.671099424362183,2000000000.0,-43.4644980404797,-24.137475230943096,NO,0.0
15.993308782577515,2000000000.0,-43.70905602615092,-15.690938415509532,NO,0.0
16.309714794158936,2000000000.0,-43.83890582935826,-15.389528659974335,NO,0.0
16.631406784057617,2000000000.0,-43.72252969773467,-26.213365332834947,NO,0.0
16.9546639919281,2000000000.0,-43.96275051849038,-17.934000748880365,NO,0.0
17.278512716293335,2000000000.0,-44.6734412029991,-12.988430320355102,NO,0.0
17.598597288131714,2000000000.0,-44.7971749093863,-11.47301338844317,NO,0.0
17.916632652282715,2000000000.0,-45.0617570652544,-9.082202504427602,NO,0.0
18.234177350997925,2000000000.0,-45.00189540032529,-8.589165030045976,NO,0.0
18.551137924194336,2000000000.0,-44.96371664833375,-7.617587450629747,NO,0.0
18.866345167160034,2000000000.0,-44.78264254974796,-7.357966885926242,NO,0.0
19.184125661849976,2000000000.0,-44.811717947165704,-6.524321327695336,NO,0.0
19.501163005828857,2000000000.0,-44.65736288103629,-6.424457096997944,NO,0.0
19.81972599029541,2000000000.0,-44.83125983419234,-6.064735818241466,NO,0.0
20.139687299728394,2000000000.0,-45.047159271486876,-6.075288466791129,NO,0.0
20.457720518112183,2000000000.0,-45.00466942501534,-6.1603634455401,NO,0.0
20.773500204086304,2000000000.0,-45.145978654863356,-6.3253776242745445,NO,0.0
21.095184803009033,2000000000.0,-44.85318744592619,-6.065908084897828,NO,0.0
21.41123867034912,2000000000.0,-44.42096193320181,-6.8378358080352575,NO,0.0
21.73911738395691,2000000000.0,-44.454122135909216,-7.112303321269867,NO,0.0
22.054670810699463,2000000000.0,-44.77240669537732,-6.401666733386158,NO,0.0
22.374253034591675,2000000000.0,-45.11363822745102,-6.1444241555221835,NO,0.0
22.692360401153564,2000000000.0,-45.05876671226777,-6.158447049317095,NO,0.0
23.00896453857422,2000000000.0,-45.152458672882375,-6.306041885203355,NO,0.0
23.328094720840454,2000000000.0,-45.29379431589565,-6.759654546571712,NO,0.0
23.653240203857422,2000000000.0,-45.4292790338858,-7.128590141886029,NO,0.0
23.970415353775024,2000000000.0,-45.31198962864754,-6.857381035262355,NO,0.0
24.291441917419434,2000000000.0,-44.56603210494172,-6.249070352894202,NO,0.0
24.6105899810791,2000000000.0,-44.139347151067135,-8.207798900775934,NO,0.0
24.930873155593872,2000000000.0,-44.35008596941663,-7.9763489626496495,NO,0.0
25.258262634277344,2000000000.0,-44.54266819295132,-6.710198145032253,NO,0.0
25.578645706176758,2000000000.0,-44.64339267785401,-6.490495951275353,NO,0.0
25.900758743286133,2000000000.0,-44.73122217213905,-6.488838634941815,NO,0.0
26.219077110290527,2000000000.0,-43.97269555853286,-8.86900045168628,NO,0.0
26.53687882423401,2000000000.0,-44.81505859348946,-9.288509252310407,NO,0.0
26.853079557418823,2000000000.0,-46.92427952090246,-7.378116134608846,NO,0.0
27.167938232421875,2000000000.0,-46.10727173152398,-9.172537785241172,NO,0.0
27.488614559173584,2000000000.0,-45.197126041301686,-8.559273784968426,NO,0.0
27.807535648345947,2000000000.0,-44.64249731992507,-7.168096927152417,NO,0.0
28.127182722091675,2000000000.0,-43.912991716072646,-6.559193188953985,NO,0.0
28.452497005462646,2000000000.0,-43.61207371282668,-6.590794096707697,NO,0.0
28.768516778945923,2000000000.0,-43.15214032618307,-7.138813504024512,NO,0.0
29.0859854221344,2000000000.0,-42.890779666563645,-7.122719572943237,NO,0.0
29.401136875152588,2000000000.0,-43.99342185139893,-8.158530788144475,NO,0.0
29.716524839401245,2000000000.0,-44.89836928248356,-10.117525162182757,NO,0.0
30.03426480293274,2000000000.0,-45.61482168409407,-14.71348711591684,NO,0.0
30.349465370178223,2000000000.0,-46.3517504915999,-13.877649311399864,NO,0.0
30.66401767730713,2000000000.0,-47.45070042117803,-17.541604141046534,NO,0.0
30.98021674156189,2000000000.0,-43.61353982693831,-14.553250309402799,NO,0.0
31.302265405654907,2000000000.0,-42.95724443542035,-12.7229691375627,NO,0.0
31.61791229248047,2000000000.0,-42.66506768317163,-14.543329707384425,NO,0.0
31.944815635681152,2000000000.0,-42.51553637982017,-13.406307644781643,NO,0.0
32.26213765144348,2000000000.0,-42.80574766495043,-18.147580062734153,NO,0.0
32.5751838684082,2000000000.0,-44.02148915358768,-18.076394076351086,NO,0.0
32.89288830757141,2000000000.0,-44.79851486654197,-21.9832156215028,NO,0.0
33.20883655548096,2000000000.0,-44.164484793129134,-15.819329197999867,NO,0.0
33.524937868118286,2000000000.0,-42.79798110934698,-18.020513565058383,NO,0.0
33.86371064186096,2000000000.0,-41.90982368461804,-22.241481523620177,NO,0.0
34.186625480651855,2000000000.0,-42.415300159527796,-20.86505217057617,NO,0.0
34.51264500617981,2000000000.0,-42.32711179196818,-15.283670989826774,NO,0.0
34.83485245704651,2000000000.0,-42.18259537065188,-7.7637076605186275,NO,0.0
35.15025043487549,2000000000.0,-42.06882602515967,-7.340084723939288,NO,0.0
35.46284103393555,2000000000.0,-41.72497531433423,-7.384206951850238,NO,0.0
35.786938428878784,2000000000.0,-41.64542664296515,-7.110777110980835,NO,0.0
36.10192918777466,2000000000.0,-41.25479866132178,-6.945613345902604,NO,0.0
36.41794490814209,2000000000.0,-45.897588765360815,-7.097343417938856,NO,0.0
36.7363805770874,2000000000.0,-45.05296878657843,-6.9689435250247875,NO,0.0
37.05291986465454,2000000000.0,-43.67398184315697,-8.463946206591391,NO,0.0
37.36583614349365,2000000000.0,-43.28263394562012,-9.982788209074801,NO,0.0
37.69544172286987,2000000000.0,-43.96222561140972,-7.599750461846506,NO,0.0
38.015825271606445,2000000000.0,-44.20126445781918,-7.587553469314571,NO,0.0
38.33196663856506,2000000000.0,-44.462468894582294,-9.53069852891867,NO,0.0
38.65332388877869,2000000000.0,-46.70549177287952,-8.513992676696214,NO,0.0
38.96920418739319,2000000000.0,-47.834693011784,-7.955676241752158,NO,0.0
39.283706188201904,2000000000.0,-48.38474739322598,-7.9767714570532,NO,0.0
39.60418915748596,2000000000.0,-46.39169752875194,-8.754920739747076,NO,0.0
39.92527461051941,2000000000.0,-46.961483702086504,-10.741104874469515,NO,0.0
40.25127553939819,2000000000.0,-48.61778678424258,-9.91790860627945,NO,0.0
40.5679829120636,2000000000.0,-47.99611868834613,-7.715599274309252,NO,0.0
40.885560512542725,2000000000.0,-47.41549343985994,-7.37398248847917,NO,0.0
41.19892978668213,2000000000.0,-46.77230041516027,-7.225907183107642,NO,0.0
41.52229142189026,2000000000.0,-44.267634585780364,-8.51968011939032,NO,0.0
41.846782207489014,2000000000.0,-43.643458838978326,-6.565822796200564,NO,0.0
42.16211199760437,2000000000.0,-45.260911687660666,-6.2211312754134065,NO,0.0
42.4802303314209,2000000000.0,-45.37130478752704,-8.115148837726705,NO,0.0
42.81351566314697,2000000000.0,-44.3142130343831,-7.760163109080981,NO,0.0
43.131104469299316,2000000000.0,-43.50155090412744,-9.599971747159152,NO,0.0
43.45300531387329,2000000000.0,-44.05546760821754,-10.93708219567211,NO,0.0
43.77140998840332,2000000000.0,-43.94526433119128,-8.380942339101322,NO,0.0
44.09359121322632,2000000000.0,-43.80494161078046,-5.780610187362779,NO,0.0
44.40818381309509,2000000000.0,-43.514495797077814,-6.900118443686791,NO,0.0
44.72875714302063,2000000000.0,-43.372117311863924,-8.593733023877135,NO,0.0
45.049978733062744,2000000000.0,-43.34367955516595,-19.91547506511052,NO,0.0
45.365302324295044,2000000000.0,-43.2508792695156,-12.632104687746127,NO,0.0
45.68330359458923,2000000000.0,-43.78090657613026,-25.26825924919674,NO,0.0
45.99825072288513,2000000000.0,-44.14649163863443,-13.152993163757225,NO,0.0
46.31161069869995,2000000000.0,-43.28163791318701,-9.411081674868786,NO,0.0
46.62769842147827,2000000000.0,-42.48903180288937,-9.37532424178828,NO,0.0
46.95848774909973,2000000000.0,-42.34905951685438,-10.35995534046771,NO,0.0
47.27911615371704,2000000000.0,-42.44918891060263,-9.467889813112837,NO,0.0
47.60158443450928,2000000000.0,-42.470394625721006,-11.867416845207796,NO,0.0
47.920838594436646,2000000000.0,-42.27187993379744,-13.306001916143863,NO,0.0
48.239654541015625,2000000000.0,-42.27322883478575,-10.83971632831326,NO,0.0
48.55490589141846,2000000000.0,-42.07978783808903,-9.795897513431822,NO,0.0
48.87917971611023,2000000000.0,-42.789434374522706,-12.633589735002918,NO,0.0
49.20695972442627,2000000000.0,-43.264937133794206,-16.340511008848885,NO,0.0
49.520076751708984,2000000000.0,-43.70811585644567,-14.267233797041225,NO,0.0
49.836676597595215,2000000000.0,-44.560371790864366,-11.43744244892911,NO,0.0
50.15067267417908,2000000000.0,-44.702000934548835,-7.647863702848677,NO,0.0
50.47404646873474,2000000000.0,-45.67341770674155,-6.683539492433775,NO,0.0
50.80220890045166,2000000000.0,-43.670706494487234,-7.748206955274913,NO,0.0
51.12200331687927,2000000000.0,-43.30000382016313,-8.83799533086844,NO,0.0
51.4475634098053,2000000000.0,-44.59120208266776,-7.515120486771743,NO,0.0
51.76440954208374,2000000000.0,-44.486184484563196,-19.2524573857386,NO,0.0
52.092053174972534,2000000000.0,-44.104345916893884,-14.097974448804745,NO,0.0
52.40866661071777,2000000000.0,-43.836715315867814,-9.73433312791349,NO,0.0
52.72469639778137,2000000000.0,-44.074299829044,-19.989070741025454,NO,0.0
53.05062699317932,2000000000.0,-45.40229930724315,-10.243600743471383,NO,0.0
53.36231517791748,2000000000.0,-47.26741575287776,-19.9913418176773,NO,0.0
53.680352449417114,2000000000.0,-47.773098041239436,-11.369772717550816,NO,0.0
54.00176954269409,2000000000.0,-45.68668482472859,-9.10271334835402,NO,0.0
54.31597924232483,2000000000.0,-45.012414982434734,-12.489457442924456,NO,0.0
54.63332509994507,2000000000.0,-45.97363832412681,-11.267168999490384,NO,0.0
54.94782090187073,2000000000.0,-46.198739230927366,-9.446628402225405,NO,0.0
55.26192593574524,2000000000.0,-46.099276190709475,-9.37712627606529,NO,0.0
55.580517053604126,2000000000.0,-46.71543106929071,-10.037388279689432,NO,0.0
55.896645069122314,2000000000.0,-47.48923679740709,-9.437814204083047,NO,0.0
56.217962980270386,2000000000.0,-46.27148252982242,-7.889762992151635,NO,0.0
56.53479337692261,2000000000.0,-44.76617493223309,-7.845492145498822,NO,0.0
56.84929037094116,2000000000.0,-46.180544699684056,-9.860611607488758,NO,0.0
57.16470813751221,2000000000.0,-47.01628488545653,-7.988287211748297,NO,0.0
57.48658299446106,2000000000.0,-47.58584322873756,-9.530950992487606,NO,0.0
57.800607681274414,2000000000.0,-46.0336783150545,-14.949033219011083,NO,0.0
58.1176917552948,2000000000.0,-46.22482746206472,-20.32414190150515,NO,0.0
58.43172526359558,2000000000.0,-46.08910492097786,-18.74047432067749,NO,0.0
58.747814655303955,2000000000.0,-45.905624423008156,-21.551418509288204,NO,0.0
59.06293869018555,2000000000.0,-45.6182310303124,-20.985850603488714,NO,0.0
59.38650441169739,2000000000.0,-45.69773911259042,-14.329300851092981,NO,0.0
59.70254731178284,2000000000.0,-45.65917207289058,-13.65419749546052,NO,0.0
60.019288063049316,2000000000.0,-45.186796040380074,-12.097797001542203,NO,0.0
60.36137366294861,2000000000.0,-44.5725741225981,-9.951117984730585,NO,0.0
60.67959690093994,2000000000.0,-44.428657890715854,-6.568715357168059,NO,0.0
61.00268030166626,2000000000.0,-43.769334632075584,-6.824641908258549,NO,0.0
61.31838250160217,2000000000.0,-44.942381071949,-8.164323779691157,NO,0.0
61.64271688461304,2000000000.0,-41.44839475026928,-20.513241460718483,NO,0.0
61.958027839660645,2000000000.0,-43.48223054991385,-22.504448503862736,NO,0.0
62.28217077255249,2000000000.0,-43.177440702155025,-17.411396072400393,NO,0.0
62.60162830352783,2000000000.0,-41.69068900618328,-20.690668158909588,NO,0.0
62.91781687736511,2000000000.0,-41.30868469610807,-10.254491488730796,NO,0.0
63.232481479644775,2000000000.0,-40.589936664673175,-6.623826779841059,NO,0.0
63.545870542526245,2000000000.0,-41.50693448435989,-8.226360863386788,NO,0.0
63.86159563064575,2000000000.0,-42.88932958137081,-18.64571446029079,NO,0.0
64.17979025840759,2000000000.0,-41.282375607395636,-7.895193499889794,NO,0.0
64.50317144393921,2000000000.0,-43.40979822106479,-14.691523736275878,NO,0.0
64.82678580284119,2000000000.0,-42.84587307839482,-7.64733066922532,NO,0.0
65.15550589561462,2000000000.0,-47.8100165942658,-11.095376699261074,NO,0.0
65.48642230033875,2000000000.0,-48.999114407878466,-26.28592221371383,NO,0.0
65.80871891975403,2000000000.0,-44.25849430141856,-21.925375622910224,NO,0.0
66.12561392784119,2000000000.0,-43.787462184499304,-5.822574311991423,NO,0.0
66.4448504447937,2000000000.0,-42.252545188256086,-9.412279063762865,NO,0.0
66.75943350791931,2000000000.0,-43.00846136592982,-3.504586339928506,NO,0.0
67.08142328262329,2000000000.0,-43.2558988170144,0.9511804536379249,NO,0.0
67.40289878845215,2000000000.0,-43.09948357285508,-14.544185651246877,NO,0.0
67.71962666511536,2000000000.0,-43.14433678311082,-20.905358889517665,NO,0.0
68.03634285926819,2000000000.0,-43.12375250621607,-20.901001820570322,NO,0.0
68.35122632980347,2000000000.0,-42.964316821790796,-21.129479212329798,NO,0.0
68.66629791259766,2000000000.0,-42.94905902319159,-21.117594183669986,NO,0.0
68.98886585235596,2000000000.0,-42.9330882198774,-21.188541485885693,NO,0.0
69.3043360710144,2000000000.0,-42.91196641284647,-21.164864331686623,NO,0.0
69.62929725646973,2000000000.0,-42.90096477678809,-21.15385392619983,NO,0.0
