Elapsed Time (s),Frequency (Hz),S11 (dB),S21 (dB),OBJ,Height (m)
0.49030470848083496,2000000000.0,-42.5064752435803,-9.266744260834134,NO,0.0
0.9760260581970215,2000000000.0,-41.53753936275375,-9.381137130974738,NO,0.0
1.4684028625488281,2000000000.0,-41.389276664856084,-12.39671522340591,NO,0.0
1.9473686218261719,2000000000.0,-41.5476984492302,-16.162865097329913,NO,0.0
2.418835401535034,2000000000.0,-41.48588715253102,-24.341182817105626,NO,0.0
2.8995625972747803,2000000000.0,-42.04320628617615,-13.033088942342747,NO,0.0
3.3809595108032227,2000000000.0,-43.3991921542784,-16.40273762798667,NO,0.0
3.8515641689300537,2000000000.0,-45.0973933135632,-25.97500711541698,NO,0.0
4.331357955932617,2000000000.0,-45.657083644344624,-13.447889782403553,NO,0.0
4.79309606552124,2000000000.0,-45.84161346017481,-15.000946663696205,NO,0.0
5.256207466125488,2000000000.0,-44.72104419643358,-12.76923935420861,NO,0.0
5.719041109085083,2000000000.0,-45.034990894732516,-15.49096406147871,NO,0.0
6.182296276092529,2000000000.0,-44.28485848362225,-18.583778969935697,NO,0.0
6.655822515487671,2000000000.0,-43.65610700567153,-15.220818235849901,NO,0.0
7.126927375793457,2000000000.0,-43.08610887258054,-10.92115002570219,NO,0.0
7.61936092376709,2000000000.0,-42.75485946262657,-9.659163930907697,NO,0.0
8.08063268661499,2000000000.0,-42.719277633224884,-8.362547723308035,NO,0.0
8.549247741699219,2000000000.0,-42.69721343059355,-7.353540486136395,NO,0.0
9.030943393707275,2000000000.0,-42.750691650669566,-7.680307646976507,NO,0.0
9.495748043060303,2000000000.0,-42.724314881849914,-6.992319605460871,NO,0.0
9.982221126556396,2000000000.0,-42.63559166376312,-6.673367172102077,NO,0.0
10.462825536727905,2000000000.0,-42.702430246664,-6.65546189200497,NO,0.0
10.944067478179932,2000000000.0,-42.68280519914715,-6.559351779288031,NO,0.0
11.404390096664429,2000000000.0,-42.658727606213745,-6.5936618404007525,NO,0.0
11.884641170501709,2000000000.0,-42.645198867774035,-6.731402501777188,NO,0.0
12.364183902740479,2000000000.0,-42.7045505134156,-6.485440503387114,NO,0.0
12.843364953994751,2000000000.0,-42.692571122575984,-6.69791789889725,NO,0.0
13.307888269424438,2000000000.0,-42.693387842976726,-6.868313016547488,NO,0.0
13.813618183135986,2000000000.0,-42.75092838430779,-6.85247596044908,NO,0.0
14.292562484741211,2000000000.0,-42.632772439166544,-6.667694385400455,NO,0.0
14.76680874824524,2000000000.0,-42.66972402945895,-8.04297599990937,NO,0.0
15.230094909667969,2000000000.0,-43.32101661946695,-10.061638950003179,NO,0.0
15.711058855056763,2000000000.0,-42.74055465912699,-9.912788281094366,NO,0.0
16.17897319793701,2000000000.0,-43.24305622075562,-9.408306354580532,NO,0.0
16.642311811447144,2000000000.0,-44.00139176819219,-6.1349385923361135,NO,0.0
17.123692512512207,2000000000.0,-45.41594558392749,-5.959314008511853,NO,0.0
17.60635256767273,2000000000.0,-45.56237032169531,-6.506715211912033,NO,0.0
18.083277225494385,2000000000.0,-44.60821888545425,-6.796235998573921,NO,0.0
18.564964056015015,2000000000.0,-42.510247136491095,-7.127336706269384,NO,0.0
19.03647494316101,2000000000.0,-41.05260840794677,-6.127750142862035,NO,0.0
19.497241258621216,2000000000.0,-40.692089669734344,-6.737519913371035,NO,0.0
19.97233533859253,2000000000.0,-39.833802996975095,-6.9779580602627655,NO,0.0
20.44295048713684,2000000000.0,-40.61698081870325,-19.957566128782073,NO,0.0
20.910219430923462,2000000000.0,-40.28732369420332,-17.356099688977917,NO,0.0
21.380218505859375,2000000000.0,-40.25582758442497,-12.681432447034172,NO,0.0
21.837514400482178,2000000000.0,-40.66221243060881,-19.90373536626166,NO,0.0
22.30256724357605,2000000000.0,-40.85223133321121,-17.569584620391723,NO,0.0
22.777487754821777,2000000000.0,-40.868895057777934,-19.80096760613045,NO,0.0
23.258453845977783,2000000000.0,-40.786657107885425,-30.18423718941086,NO,0.0
23.732219457626343,2000000000.0,-40.20565532179483,-19.091785436837455,NO,0.0
24.21349573135376,2000000000.0,-41.12163342974568,-19.99490997435608,NO,0.0
24.68474793434143,2000000000.0,-41.34475324171337,-23.486919096126652,NO,0.0
25.16373062133789,2000000000.0,-41.192428048617,-16.093555563972554,NO,0.0
25.666301250457764,2000000000.0,-41.09689829450324,-13.347853102914154,NO,0.0
26.130882263183594,2000000000.0,-40.84240808532088,-21.36124815110442,NO,0.0
26.5922691822052,2000000000.0,-40.82351345136004,-28.73158047753411,NO,0.0
27.08425784111023,2000000000.0,-40.73560448252641,-10.847422927532723,NO,0.0
27.55746078491211,2000000000.0,-40.31727251130077,-9.848560470890177,NO,0.0
28.048723936080933,2000000000.0,-38.63383265709209,-9.882908928713686,NO,0.0
28.516797065734863,2000000000.0,-37.49567862579765,-8.431599402400625,NO,0.0
28.98359179496765,2000000000.0,-38.668913663055335,-9.508584262361433,NO,0.0
29.44200611114502,2000000000.0,-40.32618763707511,-8.624572415115715,NO,0.0
29.926693201065063,2000000000.0,-40.88487956822825,-9.207279545415963,NO,0.0
30.399107694625854,2000000000.0,-42.63114606521724,-9.245378269925697,NO,0.0
30.882638931274414,2000000000.0,-42.69132342084198,-8.64987744188605,NO,0.0
31.346399068832397,2000000000.0,-42.860061287116096,-8.919488512357184,NO,0.0
31.82745909690857,2000000000.0,-42.79256000105204,-8.284389015690333,NO,0.0
32.29220652580261,2000000000.0,-43.071228397159814,-7.954051987005482,NO,0.0
32.77220392227173,2000000000.0,-44.573127561667405,-7.321798432460032,NO,0.0
33.2558274269104,2000000000.0,-46.929556121268476,-8.510492978500919,NO,0.0
33.7514705657959,2000000000.0,-45.72979569116515,-6.594478810603506,NO,0.0
34.22771620750427,2000000000.0,-41.47734419964907,-7.6439951040162075,NO,0.0
34.688963890075684,2000000000.0,-40.135018732118255,-6.792100816642554,NO,0.0
35.15206456184387,2000000000.0,-41.27383260415776,-9.123945300151794,NO,0.0
35.63298225402832,2000000000.0,-40.78226133189395,-8.585979523805396,NO,0.0
36.10826849937439,2000000000.0,-42.67707894182877,-7.683303097321375,NO,0.0
36.572524309158325,2000000000.0,-45.395376631764336,-10.42861504629473,NO,0.0
