Elapsed Time (s),Frequency (Hz),S11 (dB),S21 (dB),OBJ,Height (m)
0.27846240997314453,2000000000.0,-41.02341053278618,-17.920145612492455,NO,0.0
0.4947795867919922,2000000000.0,-41.05243943351528,-17.730419223896043,NO,0.0
0.7119174003601074,2000000000.0,-41.050655929093345,-17.704481182160713,NO,0.0
0.9203195571899414,2000000000.0,-41.053320753155845,-17.85456658209702,NO,0.0
1.1287806034088135,2000000000.0,-41.07746491221978,-17.694417337759457,NO,0.0
1.3361892700195312,2000000000.0,-41.062544371492265,-17.69647163662902,NO,0.0
1.5439808368682861,2000000000.0,-41.079306356214296,-17.69199719145754,NO,0.0
1.752135992050171,2000000000.0,-41.055035380965805,-17.6107786838027,NO,0.0
1.9630212783813477,2000000000.0,-41.1069710016076,-17.69239491739183,NO,0.0
2.173508882522583,2000000000.0,-41.06618740760021,-17.7061120528376,NO,0.0
2.382124423980713,2000000000.0,-41.058000307696254,-17.74468557248906,NO,0.0
2.5897016525268555,2000000000.0,-41.08969984299318,-17.749744308820013,NO,0.0
2.7969133853912354,2000000000.0,-41.06136583395835,-17.837934432153503,NO,0.0
3.0107429027557373,2000000000.0,-41.05306841460596,-17.65860504590797,NO,0.0
3.2205727100372314,2000000000.0,-41.080385854020484,-17.858975927353082,NO,0.0
3.430905342102051,2000000000.0,-41.07076670508582,-17.69957524831858,NO,0.0
3.6371726989746094,2000000000.0,-41.113949336518445,-17.494633406345045,NO,0.0
3.8458750247955322,2000000000.0,-41.179821253858435,-17.72999893822428,NO,0.0
4.065805912017822,2000000000.0,-41.16393014721908,-17.390312709130285,NO,0.0
4.276756048202515,2000000000.0,-41.19640462863074,-17.710228159883535,NO,0.0
4.4866719245910645,2000000000.0,-41.15396857795976,-17.840206368655174,NO,0.0
4.693843364715576,2000000000.0,-41.22120058310816,-17.671431664523677,NO,0.0
4.9017462730407715,2000000000.0,-41.176555675078475,-17.68531407117854,NO,0.0
5.133318662643433,2000000000.0,-41.16192228733398,-17.7024001388024,NO,0.0
5.3622236251831055,2000000000.0,-41.15530070062411,-17.74738356265038,NO,0.0
5.587164640426636,2000000000.0,-41.22651443859644,-17.503578728765884,NO,0.0
5.806091547012329,2000000000.0,-41.16956406728072,-17.70972033861502,NO,0.0
6.033334255218506,2000000000.0,-41.1744133696528,-17.741018136479706,NO,0.0
6.259749412536621,2000000000.0,-41.185366744112606,-17.90188449253802,NO,0.0
6.4867870807647705,2000000000.0,-41.1879674985708,-17.726961759560805,NO,0.0
6.7114198207855225,2000000000.0,-41.195240162044854,-17.80554997338234,NO,0.0
6.935303211212158,2000000000.0,-41.14329637632281,-17.869536800677814,NO,0.0
7.154388904571533,2000000000.0,-41.192644166782124,-17.738213509486304,NO,0.0
7.376379013061523,2000000000.0,-41.17257754136859,-18.112697476561937,NO,0.0
7.603780269622803,2000000000.0,-41.18649713791185,-17.704106854888654,NO,0.0
7.823418617248535,2000000000.0,-41.18772229335804,-17.74716403608959,NO,0.0
8.051628828048706,2000000000.0,-41.18778824349144,-17.396042836193615,NO,0.0
8.271660566329956,2000000000.0,-41.211231013672574,-17.728264180197424,NO,0.0
8.50108027458191,2000000000.0,-41.235601208088354,-17.766856355527253,NO,0.0
8.718935489654541,2000000000.0,-41.20675853399021,-17.92546640666931,NO,0.0
8.94888186454773,2000000000.0,-41.20086798978258,-17.727401063446543,NO,0.0
9.164860010147095,2000000000.0,-41.1854792050459,-18.11012551140635,NO,0.0
9.373907566070557,2000000000.0,-41.20335493054082,-17.79837047224527,NO,0.0
9.583580017089844,2000000000.0,-41.18605851197826,-17.712832975331583,NO,0.0
9.791423797607422,2000000000.0,-41.18491482936275,-17.875114925304846,NO,0.0
9.99945878982544,2000000000.0,-41.20304781252997,-17.68867325772836,NO,0.0
10.213308095932007,2000000000.0,-41.2110351573276,-17.762565357363492,NO,0.0
10.423694133758545,2000000000.0,-41.1733531028912,-17.72212931860549,NO,0.0
10.634505271911621,2000000000.0,-41.18384086038159,-17.41845426484375,NO,0.0
10.8445303440094,2000000000.0,-41.17961541772169,-17.75161282178987,NO,0.0
11.052114486694336,2000000000.0,-41.15426461832841,-17.69380741551087,NO,0.0
11.267670392990112,2000000000.0,-41.20555274882533,-17.69181898147664,NO,0.0
11.477370977401733,2000000000.0,-41.16297002110481,-18.086010615721666,NO,0.0
11.688015460968018,2000000000.0,-41.21294932298086,-17.697203238607205,NO,0.0
11.895473718643188,2000000000.0,-41.185793779783666,-17.65376336568868,NO,0.0
12.103892803192139,2000000000.0,-41.1929946294139,-17.715377521247976,NO,0.0
12.325264692306519,2000000000.0,-41.19993789793203,-17.676854513408923,NO,0.0
12.535399675369263,2000000000.0,-41.19495186911238,-17.728605911136807,NO,0.0
12.742231607437134,2000000000.0,-41.17998720259776,-17.709688339888373,NO,0.0
12.96008563041687,2000000000.0,-41.21250872553573,-17.822531142347636,NO,0.0
13.177800178527832,2000000000.0,-41.205659471552806,-17.676766504616985,NO,0.0
13.418814659118652,2000000000.0,-41.201344087362074,-17.533079747564134,NO,0.0
13.648822784423828,2000000000.0,-41.19856006342208,-17.78147490129729,NO,0.0
13.869871377944946,2000000000.0,-41.16965505016901,-17.748333424542327,NO,0.0
14.102591514587402,2000000000.0,-41.19873262601142,-17.761737643359588,NO,0.0
14.321211576461792,2000000000.0,-41.21730258738278,-17.74031071669562,NO,0.0
14.555752038955688,2000000000.0,-41.20932913597653,-17.7273048931192,NO,0.0
14.77427363395691,2000000000.0,-41.18853612387275,-17.88009723437235,NO,0.0
14.995860815048218,2000000000.0,-41.18188694128409,-17.732080131826454,NO,0.0
15.218973159790039,2000000000.0,-41.2083131594224,-18.13192677138304,NO,0.0
15.450518608093262,2000000000.0,-41.20872793098303,-17.71706053596869,NO,0.0
15.67122483253479,2000000000.0,-41.24279240872046,-17.734568363675507,NO,0.0
15.893476963043213,2000000000.0,-41.23276708919674,-17.521380252432948,NO,0.0
16.121042013168335,2000000000.0,-41.21126104285955,-17.722860155641428,NO,0.0
16.350362539291382,2000000000.0,-41.21863268963085,-17.732037752692023,NO,0.0
16.56913137435913,2000000000.0,-41.203303674745435,-17.954442578116172,NO,0.0
16.80094885826111,2000000000.0,-41.210768724100845,-17.740111588581232,NO,0.0
17.020497798919678,2000000000.0,-41.178680158528465,-18.109553240364026,NO,0.0
17.257930040359497,2000000000.0,-41.20392349106366,-17.849262014563287,NO,0.0
17.471708297729492,2000000000.0,-41.19993696389017,-17.718273437699192,NO,0.0
17.678847312927246,2000000000.0,-41.212080462302715,-18.172027749222323,NO,0.0
17.886549949645996,2000000000.0,-41.24393970898041,-17.746120589534122,NO,0.0
