Elapsed Time (s),Frequency (Hz),S11 (dB),S21 (dB),OBJ,Height (m)
0.4770948886871338,2000000000.0,-37.41485008503064,1.894312579605026,YES,1.3
0.9135327339172363,2000000000.0,-37.41062186715961,1.820615320741703,YES,1.3
1.3394756317138672,2000000000.0,-37.38782577648538,1.8366382550652782,YES,1.3
1.784341812133789,2000000000.0,-37.38395808691693,1.8410853945282715,YES,1.3
2.2211668491363525,2000000000.0,-37.40590801468406,1.841988209873302,YES,1.3
2.6735572814941406,2000000000.0,-37.391405076770866,1.8425867315287905,YES,1.3
3.113002300262451,2000000000.0,-37.41024870521554,1.841688898028349,YES,1.3
3.5679657459259033,2000000000.0,-37.36819629432669,1.823868013515091,YES,1.3
3.9950220584869385,2000000000.0,-37.41009814424175,1.8259378166581517,YES,1.3
4.428604602813721,2000000000.0,-37.3910468679974,1.836241337932924,YES,1.3
4.858381032943726,2000000000.0,-37.41572133128119,1.8407321619432646,YES,1.3
5.285519599914551,2000000000.0,-37.4212499650158,1.8455079390031859,YES,1.3
5.715290069580078,2000000000.0,-37.43192797356484,1.8959471708707418,YES,1.3
6.155054330825806,2000000000.0,-37.394296312129086,1.8988992898930852,YES,1.3
6.589871168136597,2000000000.0,-37.42847909423938,1.8882941325564269,YES,1.3
7.014532566070557,2000000000.0,-37.41882398054723,1.8715506589232604,YES,1.3
7.4393837451934814,2000000000.0,-37.42129840671317,1.8981549732003136,YES,1.3
7.874943733215332,2000000000.0,-37.44168207095155,1.8957824521246427,YES,1.3
8.29294753074646,2000000000.0,-37.42769678787858,1.9027365468003699,YES,1.3
8.713879108428955,2000000000.0,-37.42264394755428,1.8959609304209313,YES,1.3
9.141712665557861,2000000000.0,-37.428001633574084,1.9020030629781925,YES,1.3
9.572597742080688,2000000000.0,-37.4264747474616,1.8908957222013065,YES,1.3
9.993626832962036,2000000000.0,-37.25709393484289,1.819018819909035,YES,1.3
10.416254758834839,2000000000.0,-37.275986231310696,1.6551294662488751,YES,1.3
10.839794158935547,2000000000.0,-37.14033713611667,2.137261472818879,YES,1.3
11.265214204788208,2000000000.0,-37.664525234787824,2.108470924086862,YES,1.3
11.692859172821045,2000000000.0,-37.593551824219425,1.9093561586318977,YES,1.3
12.121203184127808,2000000000.0,-37.69820916282924,1.8462089764586709,YES,1.3
12.547934770584106,2000000000.0,-36.9340172577723,0.9329914889680522,YES,1.3
12.971721649169922,2000000000.0,-36.16788068301573,0.8592511655138797,YES,1.3
13.396939754486084,2000000000.0,-37.001827966115776,2.3130399772047467,YES,1.3
13.827597618103027,2000000000.0,-36.44323270181734,2.247425712487699,YES,1.3
14.247644424438477,2000000000.0,-36.19117305927687,2.889311730102539,YES,1.3
14.669998168945312,2000000000.0,-36.046566008375244,3.0340332872808533,YES,1.3
15.091969728469849,2000000000.0,-36.078769616471305,3.01460361791039,YES,1.3
15.515908241271973,2000000000.0,-36.037197048193605,2.9117708511536655,YES,1.3
15.947865724563599,2000000000.0,-36.00965194627837,2.9735109828096147,YES,1.3
16.378031015396118,2000000000.0,-36.026515425540204,2.956286988932632,YES,1.3
16.81328058242798,2000000000.0,-36.00270756966505,2.9544037892892265,YES,1.3
17.245070934295654,2000000000.0,-35.99224897326818,2.953457176439831,YES,1.3
17.671883821487427,2000000000.0,-36.00697118596672,2.9496023735275156,YES,1.3
18.09596610069275,2000000000.0,-35.985116048899705,2.9525171932125898,YES,1.3
18.520410776138306,2000000000.0,-35.99301739171784,2.9527211898765717,YES,1.3
18.941819667816162,2000000000.0,-35.99050043655355,2.9540802972154134,YES,1.3
19.364742279052734,2000000000.0,-35.98500242187263,2.9544771184412926,YES,1.3
19.792487859725952,2000000000.0,-35.982769316332494,2.942903371502312,YES,1.3
20.21639323234558,2000000000.0,-35.977800059570306,2.97421897679928,YES,1.3
20.64124035835266,2000000000.0,-35.97843596545273,3.020767595538044,YES,1.3
21.064794540405273,2000000000.0,-35.99937523162528,2.9102232081456676,YES,1.3
21.48476767539978,2000000000.0,-35.989938038592506,2.933813780720013,YES,1.3
21.915071487426758,2000000000.0,-36.00132820304759,2.954402899979976,YES,1.3
22.334535121917725,2000000000.0,-35.972037840568575,2.9449137082239756,YES,1.3
22.789470911026,2000000000.0,-35.989432881870925,2.9578288061668774,YES,1.3
23.216561317443848,2000000000.0,-35.9867726005379,2.925873268965025,YES,1.3
23.65721869468689,2000000000.0,-35.99430922922352,2.933467053183925,YES,1.3
24.075595378875732,2000000000.0,-35.99736874984359,2.9144390257860833,YES,1.3
24.491898775100708,2000000000.0,-36.00967513166151,2.9374020431384658,YES,1.3
24.911118507385254,2000000000.0,-36.04660154710149,2.952335410094809,YES,1.3
25.39672827720642,2000000000.0,-36.03264493435177,2.9697146787632116,YES,1.3
25.840686082839966,2000000000.0,-36.04214281169041,2.976319593006773,YES,1.3
26.267676830291748,2000000000.0,-36.07134751142466,2.98785668928029,YES,1.3
26.6884343624115,2000000000.0,-36.04381245629991,2.990581510381625,YES,1.3
27.155319452285767,2000000000.0,-36.02676609955474,2.9725499965643314,YES,1.3
27.732686519622803,2000000000.0,-36.055551037432785,2.978995728985261,YES,1.3
28.241002321243286,2000000000.0,-36.05878634832234,2.9735119397068663,YES,1.3
28.81539011001587,2000000000.0,-36.040329277800076,2.9743805811671855,YES,1.3
29.334691524505615,2000000000.0,-36.044555353656676,2.9853030769081164,YES,1.3
29.9315128326416,2000000000.0,-36.05057777045988,2.9825892373219647,YES,1.3
30.51370668411255,2000000000.0,-36.040012614240524,2.979615133353662,YES,1.3
31.05233383178711,2000000000.0,-36.07111882105167,2.9711422375643726,YES,1.3
31.61069416999817,2000000000.0,-36.07515840348305,2.9798470605468603,YES,1.3
32.171093463897705,2000000000.0,-36.06358773081981,2.975187804023154,YES,1.3
32.72306227684021,2000000000.0,-36.06099241163164,2.969416789584405,YES,1.3
33.21935224533081,2000000000.0,-36.10147813227334,2.9940939141067076,YES,1.3
33.78538179397583,2000000000.0,-36.07212046943872,2.9806030091651503,YES,1.3
34.331053495407104,2000000000.0,-36.0871404375159,2.972446556845187,YES,1.3
34.90399980545044,2000000000.0,-36.07707271461804,2.956534825189646,YES,1.3
35.467714071273804,2000000000.0,-36.079999951272235,2.961869163077007,YES,1.3
35.963480949401855,2000000000.0,-36.07975875483394,2.963868855198953,YES,1.3
36.54019570350647,2000000000.0,-36.093403418978674,2.962347587010634,YES,1.3
37.10247755050659,2000000000.0,-36.0956690959192,2.9540442861266243,YES,1.3
37.566256046295166,2000000000.0,-36.08272976193728,2.9633184005678626,YES,1.3
38.05571627616882,2000000000.0,-36.10408885680863,2.9708891195736236,YES,1.3
38.480875968933105,2000000000.0,-36.10703532083198,2.9744075724078094,YES,1.3
39.04032635688782,2000000000.0,-36.10046661796125,2.9741277798475347,YES,1.3
39.4629385471344,2000000000.0,-36.09543035858983,2.9411189874059485,YES,1.3
39.90136456489563,2000000000.0,-36.104744395656134,2.959700234672536,YES,1.3
40.356757164001465,2000000000.0,-36.1029333663304,2.946938290266956,YES,1.3
40.779950857162476,2000000000.0,-36.11160581828182,2.970454559013811,YES,1.3
41.21816372871399,2000000000.0,-36.10466799034726,2.9518593989634256,YES,1.3
41.64543080329895,2000000000.0,-36.09151576293443,2.9628552425188515,YES,1.3
42.06959080696106,2000000000.0,-36.08018702431728,2.952817788929083,YES,1.3
42.50383496284485,2000000000.0,-36.07682950685327,2.95203695986664,YES,1.3
42.93366575241089,2000000000.0,-36.07280432205414,2.965773391965603,YES,1.3
43.361488342285156,2000000000.0,-36.052163697410826,2.967209277571476,YES,1.3
43.823776721954346,2000000000.0,-36.08638966305178,2.9673422681367874,YES,1.3
44.28532862663269,2000000000.0,-36.091213415912755,2.964561660010703,YES,1.3
44.73386478424072,2000000000.0,-36.09921006761825,2.972128051596363,YES,1.3
45.168901443481445,2000000000.0,-36.105902710583024,2.9498503079911016,YES,1.3
45.58423209190369,2000000000.0,-36.07658752784913,2.951515818570332,YES,1.3
46.019007444381714,2000000000.0,-36.09747561660795,2.9714956844189793,YES,1.3
46.442174434661865,2000000000.0,-36.097769850100555,2.9761767076742234,YES,1.3
46.887531995773315,2000000000.0,-36.08964744604764,2.974765053667863,YES,1.3
47.306172609329224,2000000000.0,-36.09162347277404,2.974025849293831,YES,1.3
47.72787141799927,2000000000.0,-36.08093529906293,2.9585594876376273,YES,1.3
48.143982887268066,2000000000.0,-36.07854444006484,2.954998398796196,YES,1.3
48.59424185752869,2000000000.0,-36.08376638592118,2.9811581694331313,YES,1.3
49.08924126625061,2000000000.0,-36.05695802707289,2.9770863364991875,YES,1.3
49.50705099105835,2000000000.0,-36.062663999557,2.961124128310689,YES,1.3
49.92138123512268,2000000000.0,-36.05677713216098,2.956964269355163,YES,1.3
50.36450409889221,2000000000.0,-36.073651616228446,2.948800231276405,YES,1.3
50.78188133239746,2000000000.0,-36.05847470817342,2.9423877516996244,YES,1.3
51.19690799713135,2000000000.0,-36.06247625455485,2.9581561784654076,YES,1.3
51.62474846839905,2000000000.0,-36.07943844199347,2.9627998033086906,YES,1.3
52.048691272735596,2000000000.0,-36.052096568557445,2.9729844567884127,YES,1.3
52.46881151199341,2000000000.0,-36.038041951146894,2.980324991351641,YES,1.3
52.89038896560669,2000000000.0,-36.029712109131516,2.960017752871887,YES,1.3
53.3201858997345,2000000000.0,-36.04184459698494,2.9386840468608604,YES,1.3
53.755677938461304,2000000000.0,-36.03227629392266,2.956203886702027,YES,1.3
54.182708501815796,2000000000.0,-36.015419613463635,2.955406299807502,YES,1.3
54.60660409927368,2000000000.0,-36.024856414225525,2.9727332356844274,YES,1.3
55.040361404418945,2000000000.0,-36.04126863302686,2.9727807716956174,YES,1.3
55.51462936401367,2000000000.0,-36.046761265373576,2.9634435936177534,YES,1.3
55.932663917541504,2000000000.0,-36.04272588200675,2.950784005959096,YES,1.3
56.50138545036316,2000000000.0,-36.03250757254735,2.947365119635389,YES,1.3
56.92768168449402,2000000000.0,-36.02497981595395,2.94797446386362,YES,1.3
57.37090802192688,2000000000.0,-36.02950732831288,2.953037614972271,YES,1.3
57.87113833427429,2000000000.0,-36.034169622548625,2.9456448984493737,YES,1.3
58.327394008636475,2000000000.0,-36.06263351379659,2.93373379528661,YES,1.3
58.75284814834595,2000000000.0,-36.05204403192527,2.9368378206860024,YES,1.3
59.25165319442749,2000000000.0,-36.03708370409912,2.9280261116511914,YES,1.3
59.66969537734985,2000000000.0,-36.073908599151466,2.9332174422840755,YES,1.3
60.086657762527466,2000000000.0,-36.093187800505916,2.8788437999716403,YES,1.3
60.503235816955566,2000000000.0,-36.46545161512348,2.6477014069915756,YES,1.3
60.9181752204895,2000000000.0,-36.68217439236804,2.587202608758586,YES,1.3
61.33564352989197,2000000000.0,-36.62666583719269,2.624098473187183,YES,1.3
61.76005244255066,2000000000.0,-36.9499434047286,2.472360735993291,YES,1.3
62.177053451538086,2000000000.0,-36.893096478550135,2.4505092703963265,YES,1.3
62.60207915306091,2000000000.0,-36.89586983343331,2.3708062595339623,YES,1.3
63.014087200164795,2000000000.0,-36.68849238439937,2.327068302877327,YES,1.3
63.43009066581726,2000000000.0,-36.268603097042515,2.6709172012180464,YES,1.3
63.85923147201538,2000000000.0,-36.23742717650259,2.650483211636331,YES,1.3
64.28284955024719,2000000000.0,-36.01513138688611,2.7617117609249404,YES,1.3
64.6996054649353,2000000000.0,-35.97005476529926,2.744839675883026,YES,1.3
65.11493611335754,2000000000.0,-36.10471441825298,2.67049440939978,YES,1.3
65.52783536911011,2000000000.0,-36.106912663635924,2.630650852326897,YES,1.3
65.94920444488525,2000000000.0,-36.08471891137683,2.6515820667162875,YES,1.3
66.36495423316956,2000000000.0,-36.12134855482494,2.6177474363994997,YES,1.3
66.78843903541565,2000000000.0,-36.092316658166375,2.6691661779675178,YES,1.3
67.22086596488953,2000000000.0,-36.09879722295874,2.670705185337137,YES,1.3
67.64108753204346,2000000000.0,-36.109227525587464,2.6707817636542437,YES,1.3
68.05682015419006,2000000000.0,-36.12085234956443,2.6613937462199857,YES,1.3
68.48462986946106,2000000000.0,-36.12104933889115,2.663815421331508,YES,1.3
68.8963394165039,2000000000.0,-36.11537272794168,2.6647590301300417,YES,1.3
69.31455707550049,2000000000.0,-36.1371344311081,2.682935899601324,YES,1.3
69.74014139175415,2000000000.0,-36.11871895558432,2.7082552363149537,YES,1.3
70.1583480834961,2000000000.0,-36.10226699214578,2.7069858923532566,YES,1.3
70.57471299171448,2000000000.0,-36.127629764989734,2.7071438040344025,YES,1.3
71.00101852416992,2000000000.0,-36.12694796478482,2.708783574355402,YES,1.3
71.42623925209045,2000000000.0,-36.12300658122699,2.7077763887944446,YES,1.3
71.84064149856567,2000000000.0,-36.11868218638225,2.6957534441234237,YES,1.3
72.39177441596985,2000000000.0,-36.14995789639918,2.692266703088019,YES,1.3
72.8137857913971,2000000000.0,-36.13129863117913,2.701457824113276,YES,1.3
73.23412442207336,2000000000.0,-36.11085540948879,2.7122098877161904,YES,1.3
73.68557691574097,2000000000.0,-36.113327847860035,2.7108481035789356,YES,1.3
74.18403840065002,2000000000.0,-36.09002782567526,2.6991951595081765,YES,1.3
74.639164686203,2000000000.0,-36.114829950103385,2.6986554755691587,YES,1.3
75.10027408599854,2000000000.0,-36.11250902588999,2.6989212364997854,YES,1.3
75.65567231178284,2000000000.0,-36.12643508703296,2.7000510959275603,YES,1.3
76.12456703186035,2000000000.0,-36.10522460381202,2.7048587041318806,YES,1.3
76.60529685020447,2000000000.0,-36.12888033467459,2.7033576216764494,YES,1.3
77.09111738204956,2000000000.0,-36.1292071647777,2.7070396103294376,YES,1.3
77.57467198371887,2000000000.0,-36.10237140167016,2.709809403357349,YES,1.3
78.01911115646362,2000000000.0,-36.10579465551294,2.7012067716316723,YES,1.3
78.45033502578735,2000000000.0,-36.09110817303981,2.697899166390903,YES,1.3
78.89821672439575,2000000000.0,-36.09782869812062,2.7031394961055346,YES,1.3
79.45192098617554,2000000000.0,-36.10874477339501,2.705364688749623,YES,1.3
79.89064264297485,2000000000.0,-36.086984452849876,2.6888599723613176,YES,1.3
80.41071629524231,2000000000.0,-36.10364083711764,2.698404438728637,YES,1.3
80.8509373664856,2000000000.0,-36.11997157271027,2.6969971081026274,YES,1.3
81.29942274093628,2000000000.0,-36.099355414363636,2.6935644340333784,YES,1.3
81.75931072235107,2000000000.0,-36.096199760280705,2.6912738640800917,YES,1.3
82.21095275878906,2000000000.0,-36.08599511092728,2.6940140254313705,YES,1.3
82.65030312538147,2000000000.0,-36.127139272331014,2.698846647424456,YES,1.3
83.08496069908142,2000000000.0,-36.111346995285096,2.6865112545355627,YES,1.3
83.60554885864258,2000000000.0,-36.10296774734818,2.685265790246205,YES,1.3
84.02677536010742,2000000000.0,-36.118468630000805,2.6886502990867136,YES,1.3
84.57420563697815,2000000000.0,-36.120765975133764,2.6772701796986342,YES,1.3
85.10222840309143,2000000000.0,-36.08710094577348,2.663456657564223,YES,1.3
85.55904746055603,2000000000.0,-36.10763731345325,2.6854251296822564,YES,1.3
86.03474712371826,2000000000.0,-36.082264950415244,2.687543571962247,YES,1.3
86.54535698890686,2000000000.0,-36.09564143564255,2.6922918205821533,YES,1.3
87.07554769515991,2000000000.0,-36.09762595701126,2.6938029063078317,YES,1.3
87.50016617774963,2000000000.0,-36.10478446001371,2.691077989584583,YES,1.3
87.95898938179016,2000000000.0,-36.10520787914417,2.688956591718494,YES,1.3
88.43334031105042,2000000000.0,-36.11399551860258,2.6873499768982043,YES,1.3
88.94936037063599,2000000000.0,-36.08583934740027,2.690683650334704,YES,1.3
89.36989617347717,2000000000.0,-36.079940370548094,2.691663696025312,YES,1.3
89.93846654891968,2000000000.0,-36.106649737202126,2.6927316103648993,YES,1.3
90.36930990219116,2000000000.0,-36.0904253682672,2.6865468802825827,YES,1.3
90.81748294830322,2000000000.0,-36.09999470637034,2.6744884912207247,YES,1.3
91.25005674362183,2000000000.0,-36.093054710558604,2.673011720769895,YES,1.3
91.70101046562195,2000000000.0,-36.10390419763446,2.6888552316560284,YES,1.3
92.1184504032135,2000000000.0,-36.088957914340696,2.6945348707771197,YES,1.3
92.58365750312805,2000000000.0,-36.09716827514167,2.689159165640972,YES,1.3
93.02778792381287,2000000000.0,-36.10741007065192,2.6908524658293014,YES,1.3
93.45583748817444,2000000000.0,-36.09981341621908,2.692142066237156,YES,1.3
93.8744421005249,2000000000.0,-36.09758889033931,2.6844551040503277,YES,1.3
94.37759852409363,2000000000.0,-36.077529737501905,2.685088953775069,YES,1.3
94.79494285583496,2000000000.0,-36.09974505060089,2.680888068332165,YES,1.3
95.21077346801758,2000000000.0,-36.081753088690945,2.6787528413139396,YES,1.3
95.62651419639587,2000000000.0,-36.08075135446918,2.666351720209077,YES,1.3
96.03689336776733,2000000000.0,-36.096435837852816,2.6699302346966047,YES,1.3
96.49730658531189,2000000000.0,-36.086033598009195,2.6531467805046915,YES,1.3
96.99527144432068,2000000000.0,-36.07883585665706,2.642100241504769,YES,1.3
97.45138692855835,2000000000.0,-36.118573450563105,2.7118089875401283,YES,1.3
97.8669102191925,2000000000.0,-36.15270528473485,2.670436414959933,YES,1.3
98.28340578079224,2000000000.0,-36.15531733659158,2.7517385688918097,YES,1.3
98.70704388618469,2000000000.0,-36.43663530208525,2.760283216082888,YES,1.3
99.13469290733337,2000000000.0,-36.28818884234627,2.775994981288461,YES,1.3
99.55298018455505,2000000000.0,-36.37003803066156,2.694114108017276,YES,1.3
99.96956205368042,2000000000.0,-36.03300248480796,2.683486722043188,YES,1.3
100.39024233818054,2000000000.0,-36.047147932271855,2.7029563274077493,YES,1.3
100.84016251564026,2000000000.0,-36.10377447232367,2.6911968922155474,YES,1.3
101.2588062286377,2000000000.0,-36.133045226057526,2.6573578089785754,YES,1.3
101.67989754676819,2000000000.0,-36.16903804718032,2.65950587526207,YES,1.3
102.09790015220642,2000000000.0,-36.132221970357236,2.6411854245879858,YES,1.3
102.51748299598694,2000000000.0,-36.12911336174933,2.6559890738787457,YES,1.3
102.93749976158142,2000000000.0,-36.14647367509901,2.6543482076078977,YES,1.3
103.35316610336304,2000000000.0,-36.144158727384415,2.6437320606378245,YES,1.3
103.76603174209595,2000000000.0,-36.14790274881583,2.631398758202975,YES,1.3
104.18223905563354,2000000000.0,-36.148635295739695,2.6276060128021026,YES,1.3
104.60849285125732,2000000000.0,-36.15211715144159,2.6466660162569875,YES,1.3
105.02314686775208,2000000000.0,-36.165471875320975,2.642832666934037,YES,1.3
105.43767309188843,2000000000.0,-36.14949299352629,2.6497376215421258,YES,1.3
105.88754200935364,2000000000.0,-36.145373473153825,2.6517491013128804,YES,1.3
106.30187940597534,2000000000.0,-36.169151080664996,2.650182572763078,YES,1.3
106.71815824508667,2000000000.0,-36.14166337609123,2.6416314126990925,YES,1.3
107.13643193244934,2000000000.0,-36.14317850653819,2.6399437501920615,YES,1.3
107.58370041847229,2000000000.0,-36.1255001011226,2.6449551490217997,YES,1.3
107.99857068061829,2000000000.0,-36.15505313198747,2.649399032805437,YES,1.3
108.57648062705994,2000000000.0,-36.139843786950195,2.6399324034726286,YES,1.3
109.00136804580688,2000000000.0,-36.1595765961666,2.655611134749654,YES,1.3
109.46777606010437,2000000000.0,-36.136556146876416,2.6736916533873254,YES,1.3
109.90549921989441,2000000000.0,-36.133066966605064,2.682481379026227,YES,1.3
110.33646249771118,2000000000.0,-36.104650120596176,2.666208182774312,YES,1.3
110.93061327934265,2000000000.0,-36.121624247627445,2.662227013995731,YES,1.3
111.52813458442688,2000000000.0,-36.12162648948504,2.663052362539548,YES,1.3
112.11164331436157,2000000000.0,-36.11389520987275,2.6717226623204446,YES,1.3
112.60284614562988,2000000000.0,-36.108590659272195,2.653381291807168,YES,1.3
113.15679407119751,2000000000.0,-36.19110392660996,2.6962621553858317,YES,1.3
113.61703038215637,2000000000.0,-36.176434388569966,2.671572315440721,YES,1.3
114.12933087348938,2000000000.0,-36.21147560833014,2.6726501173399497,YES,1.3
114.70500254631042,2000000000.0,-36.22415801386916,2.6542605680379276,YES,1.3
115.16003060340881,2000000000.0,-36.22261284786081,2.640011755644363,YES,1.3
115.6122145652771,2000000000.0,-36.20610943864483,2.63244759556175,YES,1.3
116.07121229171753,2000000000.0,-36.200641354458114,2.632048035108903,YES,1.3
116.62067103385925,2000000000.0,-36.19280477585707,2.644176819961841,YES,1.3
