Elapsed Time (s),Frequency (Hz),S11 (dB),S21 (dB),OBJ,Height (m)
0.6452732086181641,2000000000.0,-38.02265578911725,-2.3141524522170642,YES,1.1
1.1327235698699951,2000000000.0,-38.03828082019843,-2.3941686384674985,YES,1.1
1.591132402420044,2000000000.0,-38.02371618145917,-2.297727408106131,YES,1.1
2.052248477935791,2000000000.0,-38.0362645800164,-2.229290415790661,YES,1.1
2.5247044563293457,2000000000.0,-38.000296204452596,-2.279012523963436,YES,1.1
2.9792160987854004,2000000000.0,-38.04119518675694,-2.2227512669523963,YES,1.1
3.443377733230591,2000000000.0,-37.94255323367914,-2.3225482259789714,YES,1.1
3.8950297832489014,2000000000.0,-38.076977153997454,-2.461323575821848,YES,1.1
4.415623664855957,2000000000.0,-38.076347698201886,-2.2312610657905765,YES,1.1
4.951565742492676,2000000000.0,-38.03090279863771,-2.3089865035411856,YES,1.1
5.436277627944946,2000000000.0,-37.944473709170026,-2.295103674686545,YES,1.1
5.9194722175598145,2000000000.0,-38.093280865731195,-2.343120907879881,YES,1.1
6.391469478607178,2000000000.0,-37.93611544126844,-2.436182686934713,YES,1.1
6.902460813522339,2000000000.0,-38.057242653164344,-2.452064945472418,YES,1.1
7.350985527038574,2000000000.0,-38.07764655766682,-2.4334377667311164,YES,1.1
7.8620312213897705,2000000000.0,-37.99249709334319,-2.47441068964754,YES,1.1
8.326542139053345,2000000000.0,-38.05992989363168,-2.52494448514848,YES,1.1
8.841861248016357,2000000000.0,-38.04490913512373,-2.512799941820807,YES,1.1
9.420623302459717,2000000000.0,-38.07533682524864,-2.4359431392263926,YES,1.1
9.903090000152588,2000000000.0,-38.05152516118086,-2.473963373190382,YES,1.1
10.375844955444336,2000000000.0,-38.004817776746876,-2.450970379006288,YES,1.1
10.828976392745972,2000000000.0,-38.04356967834667,-2.3911418729569904,YES,1.1
11.295313835144043,2000000000.0,-38.08113740408689,-2.1932500674032953,YES,1.1
11.770749568939209,2000000000.0,-38.12649648754197,-2.354374986735323,YES,1.1
12.2304208278656,2000000000.0,-38.01962892620609,-2.4530483791113307,YES,1.1
12.682294607162476,2000000000.0,-37.997079062698226,-2.599080564216302,YES,1.1
13.148165941238403,2000000000.0,-37.967944048327894,-2.527556497246416,YES,1.1
13.608453035354614,2000000000.0,-38.02423414406966,-2.2711633175675927,YES,1.1
14.053749799728394,2000000000.0,-38.023154024272266,-2.413379745725586,YES,1.1
14.52554178237915,2000000000.0,-38.034775902455436,-2.500720326700765,YES,1.1
15.087181329727173,2000000000.0,-38.04967282089756,-2.394574429549869,YES,1.1
15.560819625854492,2000000000.0,-37.92608308803213,-2.425909045441857,YES,1.1
16.00754451751709,2000000000.0,-38.02002969636453,-2.2179556445444084,YES,1.1
16.5913565158844,2000000000.0,-37.90719875421375,-2.3368136240436153,YES,1.1
17.055480480194092,2000000000.0,-38.01514864009734,-2.3310686795590985,YES,1.1
17.511139392852783,2000000000.0,-37.97550673104003,-2.3856095055557787,YES,1.1
17.99791979789734,2000000000.0,-37.9430419221778,-2.2589445153656214,YES,1.1
18.500349760055542,2000000000.0,-37.994341507998826,-2.18746682433311,YES,1.1
18.97225046157837,2000000000.0,-37.989835629281046,-2.1558201546276172,YES,1.1
19.433643579483032,2000000000.0,-38.10324880522875,-2.222268538664914,YES,1.1
19.885631322860718,2000000000.0,-38.227263781985265,-2.181118743580251,YES,1.1
20.33727502822876,2000000000.0,-38.179242616212576,-2.148825217628181,YES,1.1
20.799334049224854,2000000000.0,-38.13748899358535,-2.1548285249009878,YES,1.1
21.2659170627594,2000000000.0,-38.13140622816719,-2.160729374479378,YES,1.1
21.743640184402466,2000000000.0,-38.21214021539986,-2.2334037360774057,YES,1.1
22.21596908569336,2000000000.0,-38.16206758989737,-2.228296587700452,YES,1.1
22.67613434791565,2000000000.0,-38.213272019967214,-2.212102464481146,YES,1.1
23.128557920455933,2000000000.0,-38.187965119449785,-2.2173432743628148,YES,1.1
23.59579300880432,2000000000.0,-38.12419021836645,-2.1803803349363533,YES,1.1
24.074193954467773,2000000000.0,-37.9986638731241,-2.178563420646722,YES,1.1
24.531478881835938,2000000000.0,-37.93601687890255,-2.3683266474368696,YES,1.1
24.991108655929565,2000000000.0,-38.03598357145865,-2.2368048773975495,YES,1.1
25.441928386688232,2000000000.0,-38.15595998521236,-2.31243529715453,YES,1.1
25.905062198638916,2000000000.0,-38.0922525893585,-2.3394134387802836,YES,1.1
26.354631423950195,2000000000.0,-38.06004797255206,-1.922229250372769,YES,1.1
26.918286323547363,2000000000.0,-37.93768984912913,-2.3064393458935664,YES,1.1
27.364591360092163,2000000000.0,-38.00805969668618,-2.28374486836188,YES,1.1
27.93100357055664,2000000000.0,-38.158716184158386,-2.0433013245636564,YES,1.1
28.37714433670044,2000000000.0,-38.03600008388606,-2.437824783764509,YES,1.1
28.82577896118164,2000000000.0,-38.12625320084599,-2.325852023068038,YES,1.1
29.27665114402771,2000000000.0,-38.211979222542126,-2.2362527337875084,YES,1.1
29.724446296691895,2000000000.0,-38.197296431925864,-2.206210208276916,YES,1.1
30.17659640312195,2000000000.0,-38.20052678234926,-2.2019043085055605,YES,1.1
30.687268018722534,2000000000.0,-38.237727652984155,-2.223640246969534,YES,1.1
31.147030353546143,2000000000.0,-38.16090454116497,-2.22380748449227,YES,1.1
31.608443021774292,2000000000.0,-38.18789909144704,-2.2362505389381773,YES,1.1
32.08878302574158,2000000000.0,-38.183234500331366,-2.157703467774809,YES,1.1
32.53729963302612,2000000000.0,-38.175762626345346,-2.136294806623176,YES,1.1
32.9852020740509,2000000000.0,-38.17531639813153,-2.129500260640348,YES,1.1
33.43133997917175,2000000000.0,-38.203490952702666,-2.139439774149181,YES,1.1
33.878395318984985,2000000000.0,-38.18612295835826,-2.165590106904809,YES,1.1
34.350799798965454,2000000000.0,-38.21161619067874,-2.1859770922574513,YES,1.1
34.81229639053345,2000000000.0,-38.21345287922422,-2.1726620402312378,YES,1.1
35.376033306121826,2000000000.0,-38.19804550611997,-2.1616578102437916,YES,1.1
35.82884240150452,2000000000.0,-38.171800174139435,-2.2699131937859995,YES,1.1
36.35403633117676,2000000000.0,-38.119790103897635,-2.2280550936315153,YES,1.1
36.836148738861084,2000000000.0,-38.126855443945395,-2.246891505454523,YES,1.1
37.30701184272766,2000000000.0,-38.132578805017324,-2.423512361257693,YES,1.1
37.87004113197327,2000000000.0,-38.1614525083847,-2.398891118043421,YES,1.1
38.34748458862305,2000000000.0,-38.14483381602302,-2.3519116589452422,YES,1.1
38.84187650680542,2000000000.0,-38.16028887413199,-2.3324681004116745,YES,1.1
39.33017587661743,2000000000.0,-38.080111418928915,-2.186593757607178,YES,1.1
39.77708148956299,2000000000.0,-38.01578251542055,-2.1955577511455844,YES,1.1
40.24573636054993,2000000000.0,-38.03430807560541,-2.2531003390911946,YES,1.1
40.69117879867554,2000000000.0,-38.058926264412996,-2.305325113724251,YES,1.1
41.157806396484375,2000000000.0,-38.070864825778784,-2.4424439760548156,YES,1.1
41.621190786361694,2000000000.0,-38.18987134231336,-2.376180759394332,YES,1.1
42.086272954940796,2000000000.0,-38.096077003552594,-2.509908358378634,YES,1.1
42.53983163833618,2000000000.0,-38.089665537820714,-2.6193348157854817,YES,1.1
43.07477045059204,2000000000.0,-37.96843063492989,-2.477245710866345,YES,1.1
43.55345368385315,2000000000.0,-38.05147169690493,-2.4777641001364605,YES,1.1
44.01896405220032,2000000000.0,-37.95332813417463,-2.3752722654147336,YES,1.1
44.47289705276489,2000000000.0,-37.90059139965612,-2.3020003488271366,YES,1.1
45.042813777923584,2000000000.0,-38.009170278992045,-2.263989870361129,YES,1.1
45.50543236732483,2000000000.0,-38.10858314351176,-2.2278305922669777,YES,1.1
45.97491669654846,2000000000.0,-38.06449583666805,-2.4028871597789427,YES,1.1
46.50107979774475,2000000000.0,-38.10306827443312,-2.2425579113353407,YES,1.1
47.1056182384491,2000000000.0,-38.099808256479186,-2.1238711805695507,YES,1.1
47.59023094177246,2000000000.0,-38.07876987317769,-2.2423604200842004,YES,1.1
48.131250858306885,2000000000.0,-38.116385176725345,-2.1168464870715664,YES,1.1
48.59369421005249,2000000000.0,-38.08683194179827,-2.3264960182189833,YES,1.1
49.061601877212524,2000000000.0,-38.11539462969155,-2.268545427187913,YES,1.1
49.52768540382385,2000000000.0,-38.12428047692889,-2.1772053329603662,YES,1.1
49.98204779624939,2000000000.0,-38.20359106195858,-2.29582102234466,YES,1.1
50.435019969940186,2000000000.0,-38.042815629280454,-2.1984812864875627,YES,1.1
50.88536071777344,2000000000.0,-38.0936220982186,-1.9800722693412411,YES,1.1
51.43420433998108,2000000000.0,-37.69628191265224,-2.4246612338654376,YES,1.1
51.896296977996826,2000000000.0,-37.918775211214765,-2.011150596655823,YES,1.1
52.413434982299805,2000000000.0,-38.10414934556214,-2.047409772580688,YES,1.1
52.972097396850586,2000000000.0,-38.02010680706238,-2.026595603059521,YES,1.1
53.57970142364502,2000000000.0,-38.07332275682572,-2.4180606685532484,YES,1.1
54.0281195640564,2000000000.0,-38.096831578166906,-1.833464454591741,YES,1.1
54.51470398902893,2000000000.0,-37.95121080217503,-2.030862535460653,YES,1.1
55.03507947921753,2000000000.0,-38.0552911074084,-2.013495452360237,YES,1.1
55.51664113998413,2000000000.0,-38.227999218240235,-1.778081768137306,YES,1.1
55.97850298881531,2000000000.0,-38.09111119346281,-1.8871346995126754,YES,1.1
56.43986225128174,2000000000.0,-38.00427789297236,-1.978131866347763,YES,1.1
56.91689705848694,2000000000.0,-38.005861735103416,-1.9502257149104543,YES,1.1
57.491114377975464,2000000000.0,-37.98773001843817,-1.9447951951642974,YES,1.1
57.98065495491028,2000000000.0,-38.06391254365498,-1.9346748111341752,YES,1.1
58.44088387489319,2000000000.0,-38.13635330913105,-1.9140505183114138,YES,1.1
58.90166711807251,2000000000.0,-38.18710556014396,-1.8909530662928002,YES,1.1
59.37357568740845,2000000000.0,-38.14993304011807,-1.9430019251458823,YES,1.1
59.82695960998535,2000000000.0,-38.14765023705175,-1.9503431823442723,YES,1.1
60.34733986854553,2000000000.0,-38.12972002176081,-1.9332772741123034,YES,1.1
60.80625057220459,2000000000.0,-38.16748575757315,-2.0390230644934784,YES,1.1
61.32484698295593,2000000000.0,-38.05886400907995,-1.9930014600960093,YES,1.1
61.77598738670349,2000000000.0,-38.191347970477196,-1.8930334680942515,YES,1.1
62.233110189437866,2000000000.0,-38.043517806831915,-1.9820926856335284,YES,1.1
62.727407693862915,2000000000.0,-37.86834568049681,-2.043042016044058,YES,1.1
63.25151753425598,2000000000.0,-38.319894124212496,-1.9321974476730186,YES,1.1
63.770219564437866,2000000000.0,-38.14134184932458,-2.0850386184550525,YES,1.1
64.23166108131409,2000000000.0,-38.33780892164766,-2.1863837008762093,YES,1.1
64.70150852203369,2000000000.0,-38.40271143322156,-2.2212557239311463,YES,1.1
65.15284562110901,2000000000.0,-38.072241575664115,-2.395928952277858,YES,1.1
65.6127495765686,2000000000.0,-38.102105180916574,-2.169354722260921,YES,1.1
66.08142447471619,2000000000.0,-38.206561323849066,-2.8911575313845232,YES,1.1
66.61860632896423,2000000000.0,-38.07806242882919,-2.4526850405084826,YES,1.1
67.07340741157532,2000000000.0,-38.35599922456396,-2.229606099003986,YES,1.1
67.55309557914734,2000000000.0,-38.31816960587658,-2.579205372325168,YES,1.1
68.01022839546204,2000000000.0,-37.58373385434431,-2.507342057349022,YES,1.1
68.5259337425232,2000000000.0,-38.05276445415227,-2.5885963984848557,YES,1.1
68.97339344024658,2000000000.0,-37.99323161974476,-2.7079255286867623,YES,1.1
69.44302415847778,2000000000.0,-38.0094821256592,-2.6308926602856464,YES,1.1
69.89117050170898,2000000000.0,-38.03716345210828,-2.6242189187303664,YES,1.1
70.3466637134552,2000000000.0,-38.10581255869564,-2.5906488479462553,YES,1.1
70.8146722316742,2000000000.0,-38.102278998971485,-2.743980477796698,YES,1.1
71.3256094455719,2000000000.0,-38.118312378122354,-2.663297365588309,YES,1.1
71.80080914497375,2000000000.0,-38.10945149318414,-2.4872632203193685,YES,1.1
72.2824637889862,2000000000.0,-38.08626858502511,-2.5382659424509995,YES,1.1
72.89128851890564,2000000000.0,-38.186994581727475,-2.5373920455308734,YES,1.1
73.37942814826965,2000000000.0,-38.19615668528735,-2.5680189208557946,YES,1.1
73.90867900848389,2000000000.0,-38.09190435957149,-2.5386929023506086,YES,1.1
74.4062659740448,2000000000.0,-37.99669970197201,-2.691860026171283,YES,1.1
74.87709927558899,2000000000.0,-38.037587821078354,-2.6715613621790357,YES,1.1
75.40222978591919,2000000000.0,-38.09200335488289,-2.681113958734252,YES,1.1
75.99273252487183,2000000000.0,-38.08876986330405,-2.7216751684380402,YES,1.1
76.56850242614746,2000000000.0,-38.10462494608537,-2.6460920455456827,YES,1.1
77.08578443527222,2000000000.0,-38.03426128816597,-3.040765030167794,YES,1.1
77.56123781204224,2000000000.0,-37.834317838052016,-2.5404815153765403,YES,1.1
78.01875472068787,2000000000.0,-37.92454254829562,-2.1642948158407305,YES,1.1
78.51868271827698,2000000000.0,-37.904041254316084,-2.545808548954209,YES,1.1
79.02836227416992,2000000000.0,-38.24739971040695,-2.2102049281893885,YES,1.1
79.51611971855164,2000000000.0,-38.153301555925594,-2.133892618976227,YES,1.1
79.98687219619751,2000000000.0,-37.99121743041167,-2.2225587575393124,YES,1.1
80.4505672454834,2000000000.0,-38.45112979378646,-2.2681724707646693,YES,1.1
80.9211106300354,2000000000.0,-38.156391592941915,-2.5656691677586374,YES,1.1
81.3837251663208,2000000000.0,-38.07257464075893,-1.886427232242126,YES,1.1
81.83634805679321,2000000000.0,-38.05501208355829,-1.76274248173508,YES,1.1
82.30547761917114,2000000000.0,-38.02360333159758,-1.8155989699938846,YES,1.1
82.78973889350891,2000000000.0,-38.01029071807418,-1.876838349631249,YES,1.1
83.40473771095276,2000000000.0,-38.067344668697494,-1.8527159257438184,YES,1.1
83.87163257598877,2000000000.0,-38.0724592975794,-1.8477687656837731,YES,1.1
84.47557592391968,2000000000.0,-38.02805928752986,-1.9869729399010616,YES,1.1
84.94520044326782,2000000000.0,-38.00694845601788,-2.043806161607423,YES,1.1
85.43886137008667,2000000000.0,-38.08471810887086,-2.0157700000991396,YES,1.1
85.88985419273376,2000000000.0,-38.098159244673944,-2.0457013169079707,YES,1.1
86.34991645812988,2000000000.0,-38.158841650921346,-1.9543203509733114,YES,1.1
86.85791516304016,2000000000.0,-38.231283434525025,-2.1110294359940713,YES,1.1
87.32687282562256,2000000000.0,-38.16226660803552,-2.1855768825897974,YES,1.1
87.82116031646729,2000000000.0,-38.179366286572495,-2.081206804891134,YES,1.1
88.36641550064087,2000000000.0,-38.07884037447264,-1.8049347819999142,YES,1.1
88.84904885292053,2000000000.0,-38.02741065096805,-1.8564320894398387,YES,1.1
89.44907832145691,2000000000.0,-37.929506344720394,-2.077135590291154,YES,1.1
89.98787307739258,2000000000.0,-37.97640910455324,-2.018965882361346,YES,1.1
90.45269775390625,2000000000.0,-37.998800599541305,-1.962031075847661,YES,1.1
90.91008067131042,2000000000.0,-37.896637922138304,-1.9168470951495264,YES,1.1
91.38656330108643,2000000000.0,-37.94353663271621,-2.0812016079553834,YES,1.1
91.83722686767578,2000000000.0,-37.93188070910758,-2.294577612353135,YES,1.1
92.29832172393799,2000000000.0,-38.034615597263496,-2.2785962717152697,YES,1.1
92.76330256462097,2000000000.0,-37.93365372218985,-2.5708812431816783,YES,1.1
93.235431432724,2000000000.0,-38.127296842445794,-2.349009480540383,YES,1.1
93.7230749130249,2000000000.0,-38.03297866714669,-2.267846970796481,YES,1.1
94.17102026939392,2000000000.0,-38.028365314343105,-2.2969932285855323,YES,1.1
94.61893486976624,2000000000.0,-38.177698728161864,-2.4020016862086258,YES,1.1
95.07345986366272,2000000000.0,-38.1233459241905,-2.373462439880229,YES,1.1
95.5272924900055,2000000000.0,-38.10062206578999,-2.223777062027676,YES,1.1
95.97585129737854,2000000000.0,-38.004987729993545,-2.4322741215376746,YES,1.1
96.4407753944397,2000000000.0,-37.94709881378453,-2.308975433031295,YES,1.1
96.90026903152466,2000000000.0,-37.95686877651377,-2.374344998953184,YES,1.1
97.37085938453674,2000000000.0,-37.99277569575767,-2.304412913473495,YES,1.1
97.83492708206177,2000000000.0,-37.94584574410094,-2.3534538034648285,YES,1.1
98.29172682762146,2000000000.0,-37.86209952325958,-2.2621514921835746,YES,1.1
98.76091742515564,2000000000.0,-37.81821007748347,-2.3367786191676125,YES,1.1
99.21548390388489,2000000000.0,-37.84260673395989,-2.19235338581604,YES,1.1
99.67766308784485,2000000000.0,-37.81967262606037,-2.2283037108550823,YES,1.1
100.15399146080017,2000000000.0,-37.95441418497751,-2.5495391655243482,YES,1.1
100.66701483726501,2000000000.0,-37.87789604990567,-2.551232222802391,YES,1.1
101.28035187721252,2000000000.0,-37.91952390276633,-2.371141261110206,YES,1.1
101.80438709259033,2000000000.0,-37.78059940462947,-2.555849777597672,YES,1.1
102.25830745697021,2000000000.0,-37.8142329443521,-2.448018062003155,YES,1.1
102.8293125629425,2000000000.0,-37.81943585612895,-2.599306531598625,YES,1.1
103.29295659065247,2000000000.0,-37.797507667314505,-2.5501545611106162,YES,1.1
103.74323415756226,2000000000.0,-37.82418151822477,-2.6622883781259254,YES,1.1
104.1921489238739,2000000000.0,-38.058091744226,-2.5818301918627755,YES,1.1
104.67457246780396,2000000000.0,-37.89899464546557,-2.524237999032901,YES,1.1
105.15871214866638,2000000000.0,-37.95261154030619,-2.5075655804199632,YES,1.1
105.61561703681946,2000000000.0,-37.8570739566907,-2.57610666337405,YES,1.1
106.07086753845215,2000000000.0,-37.83152666401898,-2.548934233461691,YES,1.1
106.63287663459778,2000000000.0,-37.94482150408331,-2.7581466277213087,YES,1.1
107.1432638168335,2000000000.0,-37.97067949626098,-2.5198528454469074,YES,1.1
107.62176442146301,2000000000.0,-38.130329528513414,-2.6711788443763544,YES,1.1
108.08041882514954,2000000000.0,-38.113021129191935,-2.6470095936710654,YES,1.1
108.56844186782837,2000000000.0,-38.11259063811939,-2.710591391857397,YES,1.1
109.03377676010132,2000000000.0,-38.06312304098512,-2.7202017700479706,YES,1.1
109.5167760848999,2000000000.0,-37.94838952312803,-2.75120799233862,YES,1.1
109.99264550209045,2000000000.0,-38.10793350632893,-2.7214689627429056,YES,1.1
110.44122672080994,2000000000.0,-38.11405894632713,-2.7311380771854123,YES,1.1
110.91867852210999,2000000000.0,-38.14768952100921,-2.58602851181639,YES,1.1
111.36762166023254,2000000000.0,-37.99074261038544,-2.6019249941222817,YES,1.1
111.82829427719116,2000000000.0,-38.08490407417019,-2.680336736052979,YES,1.1
112.27940440177917,2000000000.0,-38.01926974699025,-2.4781382388452036,YES,1.1
112.80548214912415,2000000000.0,-38.07277190399596,-2.480017662745492,YES,1.1
113.44421529769897,2000000000.0,-38.11343947082004,-2.4418342885635984,YES,1.1
113.89542627334595,2000000000.0,-37.97199625773433,-2.4791497074029105,YES,1.1
114.36677885055542,2000000000.0,-37.86414110181396,-2.564049491170139,YES,1.1
114.82955288887024,2000000000.0,-37.88079853649135,-2.5399907585055885,YES,1.1
115.30756306648254,2000000000.0,-37.917672215103536,-2.5266013704344448,YES,1.1
115.85523676872253,2000000000.0,-37.877273645304186,-2.59599841753193,YES,1.1
116.4539475440979,2000000000.0,-37.826599614606664,-2.625740849490308,YES,1.1
116.91295075416565,2000000000.0,-37.8856385629775,-2.6302459017133857,YES,1.1
117.48983883857727,2000000000.0,-37.93644499683152,-2.592609195825872,YES,1.1
117.96215534210205,2000000000.0,-37.88616107734483,-2.660704442737952,YES,1.1
118.4472324848175,2000000000.0,-37.89121882772504,-2.695078416552022,YES,1.1
119.06013131141663,2000000000.0,-37.98741623159643,-2.5893256314775233,YES,1.1
119.54320573806763,2000000000.0,-37.90102036876461,-2.4991834287016266,YES,1.1
120.00144171714783,2000000000.0,-38.00436082002157,-2.51400450215153,YES,1.1
120.45021796226501,2000000000.0,-38.02859601292872,-2.5317466764023857,YES,1.1
120.9102213382721,2000000000.0,-38.003496842533195,-2.559235873890511,YES,1.1
121.36478018760681,2000000000.0,-37.899562401108845,-2.695352513726914,YES,1.1
121.84082508087158,2000000000.0,-37.845773382451384,-2.4802779331213536,YES,1.1
122.29505348205566,2000000000.0,-38.02996487647951,-2.402556764742459,YES,1.1
122.73771262168884,2000000000.0,-38.07947999325857,-2.4297038356254332,YES,1.1
123.23378920555115,2000000000.0,-37.95217782113959,-2.5542040930981296,YES,1.1
123.68341708183289,2000000000.0,-37.83970106029922,-2.335244043710528,YES,1.1
