Elapsed Time (s),Frequency (Hz),S11 (dB),S21 (dB),OBJ,Height (m)
0.5289738178253174,2000000000.0,-39.20965204878065,11.430497579053792,YES,1.6
0.9964854717254639,2000000000.0,-39.12471389981754,11.435707314609102,YES,1.6
1.4445111751556396,2000000000.0,-39.020209205243724,11.424492923342022,YES,1.6
2.073620080947876,2000000000.0,-39.10370677533385,11.494017914611657,YES,1.6
2.5238029956817627,2000000000.0,-39.111232211747804,11.420056069667904,YES,1.6
2.997175455093384,2000000000.0,-39.174110219152006,11.359712128103308,YES,1.6
3.447014331817627,2000000000.0,-39.13360180111355,11.434613396079572,YES,1.6
3.8966481685638428,2000000000.0,-39.16081625018839,11.426553657146833,YES,1.6
4.447516918182373,2000000000.0,-39.19003204501333,11.457656574806132,YES,1.6
4.893321514129639,2000000000.0,-39.18796727636707,11.417882670190947,YES,1.6
5.339553594589233,2000000000.0,-39.191502676695464,11.419719062081423,YES,1.6
5.788603067398071,2000000000.0,-39.20418543653597,11.41796685997341,YES,1.6
6.2399163246154785,2000000000.0,-39.21212410570476,11.418292896485738,YES,1.6
6.680920839309692,2000000000.0,-39.23083902992463,11.418517565732245,YES,1.6
7.233522415161133,2000000000.0,-39.131720813195955,11.429236739710259,YES,1.6
7.72475528717041,2000000000.0,-39.24922377550688,11.422482927476372,YES,1.6
8.17620062828064,2000000000.0,-39.31599996961285,11.433626330171037,YES,1.6
8.691066265106201,2000000000.0,-39.32116282440987,11.439532293599893,YES,1.6
9.142282009124756,2000000000.0,-39.291235233147134,11.437466068453354,YES,1.6
9.593766212463379,2000000000.0,-39.28446045338393,11.443667086824341,YES,1.6
10.043505907058716,2000000000.0,-39.31163207532028,11.48591550923063,YES,1.6
10.481914520263672,2000000000.0,-39.296229117953374,11.484082444218839,YES,1.6
10.954737424850464,2000000000.0,-39.277114708890544,11.483726246335682,YES,1.6
11.395484447479248,2000000000.0,-39.24262396871392,11.495286502358733,YES,1.6
11.85161542892456,2000000000.0,-39.31710779198199,11.480782928568349,YES,1.6
12.325636386871338,2000000000.0,-39.35797132255297,11.48317161824724,YES,1.6
12.771404027938843,2000000000.0,-39.34964954056877,11.485169590836506,YES,1.6
13.209864616394043,2000000000.0,-39.34230980177916,11.485336331056452,YES,1.6
13.671969175338745,2000000000.0,-39.374574856206436,11.485030853306935,YES,1.6
14.172064304351807,2000000000.0,-39.36648392786391,11.48066529285557,YES,1.6
14.62494158744812,2000000000.0,-39.39210052821399,11.477568820588054,YES,1.6
15.060481548309326,2000000000.0,-39.35147850934841,11.477215679976522,YES,1.6
15.51410722732544,2000000000.0,-39.345418638984015,11.477257567138581,YES,1.6
15.963775396347046,2000000000.0,-39.3301666711129,11.476564886509259,YES,1.6
16.46220874786377,2000000000.0,-39.335549546526266,11.472502322748506,YES,1.6
16.983696699142456,2000000000.0,-39.35438090499288,11.475362699546196,YES,1.6
17.471060276031494,2000000000.0,-39.36933093548875,11.43496245849759,YES,1.6
17.918672800064087,2000000000.0,-39.38101482641356,11.43769735973203,YES,1.6
18.48215627670288,2000000000.0,-39.34178746730491,11.428868184391154,YES,1.6
18.918264150619507,2000000000.0,-39.38724600143021,11.430480890405665,YES,1.6
19.369606494903564,2000000000.0,-39.31089754055009,11.422138133882068,YES,1.6
19.848586320877075,2000000000.0,-39.3489031938529,11.421699498932881,YES,1.6
20.315038442611694,2000000000.0,-39.31249213333758,11.401533118905235,YES,1.6
20.804619550704956,2000000000.0,-39.273844740262206,11.284983643385997,YES,1.6
21.281745433807373,2000000000.0,-39.272505205881615,11.418945370910762,YES,1.6
21.73038673400879,2000000000.0,-39.29152778958611,11.288679105660401,YES,1.6
22.17849636077881,2000000000.0,-39.28838812607984,11.515692305930148,YES,1.6
22.629830598831177,2000000000.0,-39.26265927148809,11.248334266086939,YES,1.6
23.1016104221344,2000000000.0,-39.30699791606203,11.191239536517124,YES,1.6
23.573065280914307,2000000000.0,-39.31138437786478,11.262180971567659,YES,1.6
24.041160106658936,2000000000.0,-39.29284452277359,11.491219948326535,YES,1.6
24.495182752609253,2000000000.0,-39.31906693707647,11.24982435812695,YES,1.6
24.959832429885864,2000000000.0,-39.300063416998505,11.48312548684797,YES,1.6
25.447455883026123,2000000000.0,-39.372159639356745,11.475404065791817,YES,1.6
25.955108880996704,2000000000.0,-39.38323494833685,11.35845454222804,YES,1.6
26.431198835372925,2000000000.0,-39.39411423465352,11.233275966466065,YES,1.6
26.965457677841187,2000000000.0,-39.374373965045145,11.302692623493197,YES,1.6
27.416515350341797,2000000000.0,-39.4040050190739,11.28964209811473,YES,1.6
27.937434673309326,2000000000.0,-39.38399199256864,11.3110571657307,YES,1.6
28.38742685317993,2000000000.0,-39.397844896651414,11.386426137252252,YES,1.6
28.855998992919922,2000000000.0,-39.38680760969572,11.228452351517063,YES,1.6
29.29022479057312,2000000000.0,-39.41418008098373,11.429303834291726,YES,1.6
29.766924381256104,2000000000.0,-39.409954170330785,11.396918567048871,YES,1.6
30.302316904067993,2000000000.0,-39.40895553611292,11.397297219616007,YES,1.6
30.767017126083374,2000000000.0,-39.384846095872085,11.395749146523091,YES,1.6
31.215621948242188,2000000000.0,-39.430107678886046,11.49407320775981,YES,1.6
31.685420036315918,2000000000.0,-39.44048634556737,11.499867721946767,YES,1.6
32.155755281448364,2000000000.0,-39.41910421787454,11.416098039040655,YES,1.6
32.59355878829956,2000000000.0,-39.42598827670139,11.377532468246292,YES,1.6
33.062527656555176,2000000000.0,-39.41829075967126,11.461136219183654,YES,1.6
33.504305601119995,2000000000.0,-39.431030291384474,11.45978800369946,YES,1.6
33.983683586120605,2000000000.0,-39.42396178918693,11.46456988101361,YES,1.6
34.53503084182739,2000000000.0,-39.40760495064413,11.392412993988987,YES,1.6
34.97588753700256,2000000000.0,-39.42045258444929,11.300214166280007,YES,1.6
35.46570444107056,2000000000.0,-39.408783076815006,11.392334189729604,YES,1.6
35.9231653213501,2000000000.0,-39.37961759844863,11.496882552089282,YES,1.6
36.387073040008545,2000000000.0,-39.373853597545775,11.470552946306423,YES,1.6
36.82664895057678,2000000000.0,-39.39861243704123,11.38911295955217,YES,1.6
37.272703647613525,2000000000.0,-39.38546058931681,11.464188338553758,YES,1.6
37.72264385223389,2000000000.0,-39.375751162434454,11.103533956779682,YES,1.6
38.16768479347229,2000000000.0,-39.37630097836332,11.389623677733196,YES,1.6
38.606059312820435,2000000000.0,-39.36444373896358,11.13747392678652,YES,1.6
39.06408476829529,2000000000.0,-39.38888807626516,11.250772204264138,YES,1.6
39.49894714355469,2000000000.0,-39.62349521808615,11.395766285466134,YES,1.6
39.96188473701477,2000000000.0,-39.621022038684984,11.417118720493296,YES,1.6
40.398008823394775,2000000000.0,-38.96544903239799,11.21121542358921,YES,1.6
40.84602451324463,2000000000.0,-38.87960645305463,11.253713032642398,YES,1.6
41.28630995750427,2000000000.0,-38.94157562722699,11.480608980760625,YES,1.6
41.739229679107666,2000000000.0,-38.90749119021329,11.27008329442746,YES,1.6
42.18627691268921,2000000000.0,-38.76391032636746,11.397358616789838,YES,1.6
42.63943386077881,2000000000.0,-39.21623848649163,11.434527275465454,YES,1.6
43.214431047439575,2000000000.0,-38.946635265880595,11.400312715357646,YES,1.6
43.65644073486328,2000000000.0,-38.94493235551093,11.406974428553639,YES,1.6
44.12098026275635,2000000000.0,-38.78271586560922,11.416814919857504,YES,1.6
44.696348667144775,2000000000.0,-38.95087093265522,11.418190743137684,YES,1.6
45.13804507255554,2000000000.0,-38.986020221643784,11.364620804946323,YES,1.6
45.58413314819336,2000000000.0,-38.969088534686655,11.424738015905568,YES,1.6
46.02131533622742,2000000000.0,-38.96331887769842,11.290560907297905,YES,1.6
46.492560148239136,2000000000.0,-38.96330333121358,11.434210178687598,YES,1.6
46.964059829711914,2000000000.0,-38.9440694942411,11.436416156902967,YES,1.6
47.414721727371216,2000000000.0,-38.92532255109324,11.437252413667787,YES,1.6
47.854987144470215,2000000000.0,-39.04333087655893,11.503561456140368,YES,1.6
48.30635690689087,2000000000.0,-39.082393458784566,11.443966946348585,YES,1.6
48.7406804561615,2000000000.0,-39.01409937919132,11.501476265184017,YES,1.6
49.24127554893494,2000000000.0,-38.94065693891715,11.501518547017673,YES,1.6
49.67590069770813,2000000000.0,-38.937556477304824,11.500257506327994,YES,1.6
50.15835690498352,2000000000.0,-38.88257786080562,11.46988947014513,YES,1.6
50.60252571105957,2000000000.0,-39.13329335348953,11.426528238301966,YES,1.6
51.14221715927124,2000000000.0,-39.066495308225235,11.397090263544802,YES,1.6
51.62031316757202,2000000000.0,-39.34948438859716,11.423685673582842,YES,1.6
52.08030676841736,2000000000.0,-39.45719190770711,11.390157364983292,YES,1.6
52.516656160354614,2000000000.0,-39.377601280343264,11.134962080187151,YES,1.6
53.00898051261902,2000000000.0,-39.376213307631986,11.269222743976247,YES,1.6
53.49884033203125,2000000000.0,-39.36360226294566,11.043344685925437,YES,1.6
53.95453405380249,2000000000.0,-39.342033042068984,11.144509063066268,YES,1.6
54.45333123207092,2000000000.0,-39.36104282402213,11.116252880200225,YES,1.6
54.92577505111694,2000000000.0,-39.33833783941132,11.305556556544797,YES,1.6
55.372923374176025,2000000000.0,-39.370870103882766,11.368701375996292,YES,1.6
55.82313513755798,2000000000.0,-39.35573706081432,11.435587721467595,YES,1.6
56.337502002716064,2000000000.0,-39.34439065145604,11.402237243032552,YES,1.6
56.779391050338745,2000000000.0,-39.349016426147,11.378843753870402,YES,1.6
57.22867012023926,2000000000.0,-39.33448144339835,11.441613918784736,YES,1.6
57.673632860183716,2000000000.0,-39.35807473821629,11.065405141437775,YES,1.6
58.25200295448303,2000000000.0,-39.322036436755155,11.46819385118526,YES,1.6
58.7102689743042,2000000000.0,-39.34605909209934,11.381415488452152,YES,1.6
59.18636393547058,2000000000.0,-39.35592849800728,11.37372252845914,YES,1.6
59.806817293167114,2000000000.0,-39.36384049714959,11.37629643713501,YES,1.6
60.28449463844299,2000000000.0,-39.38065767350815,11.430289103994632,YES,1.6
60.744044065475464,2000000000.0,-39.37001022030036,11.048594052595266,YES,1.6
61.249207735061646,2000000000.0,-39.4306499883544,11.032244667500539,YES,1.6
61.758344888687134,2000000000.0,-39.42362416959509,11.368145717418528,YES,1.6
62.267544746398926,2000000000.0,-39.44464116628681,11.38126929029216,YES,1.6
62.7974591255188,2000000000.0,-39.439103777958636,11.30621427916148,YES,1.6
63.308939933776855,2000000000.0,-39.41887330823058,11.111947842957674,YES,1.6
63.87734341621399,2000000000.0,-39.42374912265418,11.444655739389411,YES,1.6
64.38879179954529,2000000000.0,-39.414065988569156,11.419610106057752,YES,1.6
64.82344841957092,2000000000.0,-39.39893072899932,11.392210690829614,YES,1.6
65.32663059234619,2000000000.0,-39.412624126944124,11.396063863500437,YES,1.6
65.91731238365173,2000000000.0,-39.42980312597599,11.290016049120668,YES,1.6
66.4203450679779,2000000000.0,-39.44018041517317,11.341243169711529,YES,1.6
66.93462896347046,2000000000.0,-39.43371652769943,11.373247020413956,YES,1.6
67.45924139022827,2000000000.0,-39.429108891475515,11.129028646699377,YES,1.6
68.0135486125946,2000000000.0,-39.408033274847234,11.387165359641408,YES,1.6
68.52823615074158,2000000000.0,-39.44392123298839,11.45228886360899,YES,1.6
69.03880858421326,2000000000.0,-39.45428499889216,11.436225752724516,YES,1.6
69.55423092842102,2000000000.0,-39.41729886845855,11.227894714880229,YES,1.6
70.07750272750854,2000000000.0,-39.424799797749756,11.333061306771723,YES,1.6
70.59221339225769,2000000000.0,-39.45104719050437,11.401834237224941,YES,1.6
71.1031904220581,2000000000.0,-39.44304403455963,11.283475096418227,YES,1.6
71.60582399368286,2000000000.0,-39.418471248641595,11.376229555260004,YES,1.6
72.09376096725464,2000000000.0,-39.44951284951067,11.217598026702928,YES,1.6
72.5853099822998,2000000000.0,-39.45859321356722,11.45619063857084,YES,1.6
73.03731036186218,2000000000.0,-39.45596301058505,11.099867687451614,YES,1.6
73.51815390586853,2000000000.0,-39.47094421361956,11.349353439249082,YES,1.6
73.97252774238586,2000000000.0,-39.42206497270057,11.46139104984151,YES,1.6
74.41892004013062,2000000000.0,-39.440519063777685,11.026430457959776,YES,1.6
74.87294554710388,2000000000.0,-39.466066217355745,11.457330948016168,YES,1.6
75.31055402755737,2000000000.0,-39.454996443529296,11.376924653746435,YES,1.6
75.77107834815979,2000000000.0,-39.523011143177,11.429294203648851,YES,1.6
76.25623440742493,2000000000.0,-39.55310743364582,11.383723419733855,YES,1.6
76.72336387634277,2000000000.0,-39.51370749279137,11.40780095644859,YES,1.6
77.20420026779175,2000000000.0,-39.47591950562641,11.163807366325933,YES,1.6
77.66595339775085,2000000000.0,-39.456639932380696,11.331341826092899,YES,1.6
78.10018110275269,2000000000.0,-39.45762742944716,11.213939654907843,YES,1.6
78.54718828201294,2000000000.0,-39.46243132830801,11.074986522272145,YES,1.6
79.00175261497498,2000000000.0,-39.47290166154148,11.446251189740565,YES,1.6
79.59441542625427,2000000000.0,-39.45293626395117,11.400419365878784,YES,1.6
80.03900051116943,2000000000.0,-39.45795535159382,11.397513745509285,YES,1.6
80.65462589263916,2000000000.0,-39.46842502911875,11.127358288156097,YES,1.6
81.25441718101501,2000000000.0,-39.49026677857456,11.362525226957352,YES,1.6
81.74271321296692,2000000000.0,-39.47275240597668,11.016944878158721,YES,1.6
82.20892262458801,2000000000.0,-39.453058407669594,11.319458237210526,YES,1.6
82.6874303817749,2000000000.0,-39.443232689556844,11.387263164101796,YES,1.6
83.14455080032349,2000000000.0,-39.46822104160266,11.275763040944362,YES,1.6
83.70339608192444,2000000000.0,-39.51284477899238,11.382974406473974,YES,1.6
84.13492012023926,2000000000.0,-39.50569261511121,11.411751392840461,YES,1.6
84.59119296073914,2000000000.0,-39.49630354326239,11.404605619362538,YES,1.6
85.08197021484375,2000000000.0,-39.506679830279396,11.262648797847184,YES,1.6
85.54416966438293,2000000000.0,-39.50984474642024,11.029220716221285,YES,1.6
86.00146269798279,2000000000.0,-39.504833275375674,11.305721086672795,YES,1.6
86.45700311660767,2000000000.0,-39.50361101550313,11.375495327873928,YES,1.6
86.96802067756653,2000000000.0,-39.49776214285003,11.430980984845567,YES,1.6
87.4507224559784,2000000000.0,-39.51819217556837,11.323726364175474,YES,1.6
87.92010855674744,2000000000.0,-39.52033795067518,11.374593486914007,YES,1.6
88.39372658729553,2000000000.0,-39.47523206081099,11.013647394956305,YES,1.6
88.83290982246399,2000000000.0,-39.50991289567277,11.058564414675157,YES,1.6
89.31557202339172,2000000000.0,-39.49168642191798,11.054827932388758,YES,1.6
89.79490232467651,2000000000.0,-39.48735739429216,11.434887766363897,YES,1.6
90.34180521965027,2000000000.0,-39.51827209809967,11.081043441391937,YES,1.6
90.79099655151367,2000000000.0,-39.51361096076556,11.402365691412848,YES,1.6
91.2383041381836,2000000000.0,-39.49915836617873,11.488626209747906,YES,1.6
91.88671827316284,2000000000.0,-39.507704966660256,11.151561013851744,YES,1.6
92.52998185157776,2000000000.0,-39.52709992738456,11.397006654146203,YES,1.6
93.0363781452179,2000000000.0,-39.50463477552442,11.159228374793916,YES,1.6
93.504567861557,2000000000.0,-39.51923774149745,11.241593490674141,YES,1.6
93.942795753479,2000000000.0,-39.52071135591649,11.27811888694227,YES,1.6
94.45930695533752,2000000000.0,-39.5113242867995,11.454132284305249,YES,1.6
94.92506146430969,2000000000.0,-39.5270390115109,11.464924487566801,YES,1.6
95.43122339248657,2000000000.0,-39.50431821146212,11.072158566311714,YES,1.6
95.90126442909241,2000000000.0,-39.50130048955336,11.084637695198879,YES,1.6
96.40040826797485,2000000000.0,-39.51658173917662,11.024560966412123,YES,1.6
96.88961291313171,2000000000.0,-39.48980375780229,11.055064470570732,YES,1.6
97.39295387268066,2000000000.0,-39.495528344411284,11.183524005524824,YES,1.6
97.89799523353577,2000000000.0,-39.49769093017558,11.46920497408848,YES,1.6
98.41201210021973,2000000000.0,-39.54652664669854,11.324910291167743,YES,1.6
98.86730217933655,2000000000.0,-39.50833084738833,11.194646066549815,YES,1.6
99.38518333435059,2000000000.0,-39.50254820374239,11.472646214470652,YES,1.6
99.89174294471741,2000000000.0,-39.50873923877769,11.364581113785928,YES,1.6
100.39139747619629,2000000000.0,-39.52596604966242,11.377505070738518,YES,1.6
100.8361279964447,2000000000.0,-39.54644646118987,11.369664811879902,YES,1.6
101.39147353172302,2000000000.0,-39.54557159858989,11.300977715268683,YES,1.6
101.83434653282166,2000000000.0,-39.55108577797367,11.264891015890528,YES,1.6
102.40554165840149,2000000000.0,-39.5435947609676,11.322577548122116,YES,1.6
102.90662622451782,2000000000.0,-39.518239442898675,11.473893946628248,YES,1.6
103.36134219169617,2000000000.0,-39.53536538214148,11.335437690604245,YES,1.6
103.86142349243164,2000000000.0,-39.53409467370352,11.182487696187962,YES,1.6
104.3251383304596,2000000000.0,-39.53624250618908,11.371483432768798,YES,1.6
104.84085869789124,2000000000.0,-39.5226624770395,11.39539884798046,YES,1.6
105.33958649635315,2000000000.0,-39.554150216715556,11.276517123925132,YES,1.6
105.81008315086365,2000000000.0,-39.54978947194732,11.380809771933627,YES,1.6
106.34021496772766,2000000000.0,-39.521773216141256,11.226429971645967,YES,1.6
106.84311723709106,2000000000.0,-39.53304982732027,11.3651161649582,YES,1.6
107.29845690727234,2000000000.0,-39.54718253253259,11.165453612582477,YES,1.6
107.73659753799438,2000000000.0,-39.554590242549864,11.273827750928604,YES,1.6
108.18979525566101,2000000000.0,-39.52952135684364,11.233405636614169,YES,1.6
108.62197732925415,2000000000.0,-39.5184641593616,11.280255995093604,YES,1.6
109.09880113601685,2000000000.0,-39.547525516912444,11.261508894602022,YES,1.6
109.69050693511963,2000000000.0,-39.525421915265795,11.042912432020259,YES,1.6
110.1909031867981,2000000000.0,-39.56786804744323,11.353791671434994,YES,1.6
110.68862676620483,2000000000.0,-39.55643591531598,11.367907606544502,YES,1.6
111.15379190444946,2000000000.0,-39.545867815261204,10.965161187788578,YES,1.6
111.62408781051636,2000000000.0,-39.546139726307096,11.46216051278618,YES,1.6
112.08395433425903,2000000000.0,-39.552062337075434,11.202516078892824,YES,1.6
112.52580881118774,2000000000.0,-39.45376967965859,11.008367646013099,YES,1.6
113.05405116081238,2000000000.0,-39.454086133961745,10.97318908212615,YES,1.6
113.49232864379883,2000000000.0,-39.342877996015815,11.341008338900952,YES,1.6
113.94978189468384,2000000000.0,-39.44791817789282,11.196555906436526,YES,1.6
114.38346552848816,2000000000.0,-39.33969552485562,11.02952337445624,YES,1.6
114.86596250534058,2000000000.0,-39.342827161671295,11.30623127242103,YES,1.6
115.36545252799988,2000000000.0,-39.32629865943942,11.206303475837798,YES,1.6
115.87275433540344,2000000000.0,-39.37572008785591,11.011782153866037,YES,1.6
116.36915802955627,2000000000.0,-39.35067546788828,11.373847559608985,YES,1.6
116.85618257522583,2000000000.0,-39.35435504478629,11.461118539521769,YES,1.6
117.35229301452637,2000000000.0,-39.368035042641324,11.399850216061193,YES,1.6
117.95652747154236,2000000000.0,-39.366645536136474,11.357041585765323,YES,1.6
118.39582753181458,2000000000.0,-39.36557720711582,11.366321282073685,YES,1.6
118.90627121925354,2000000000.0,-39.384712649220184,11.3681610140536,YES,1.6
119.35603260993958,2000000000.0,-39.355973800429844,11.368906141436582,YES,1.6
119.82324171066284,2000000000.0,-39.37756868081151,11.121593937695714,YES,1.6
120.27205348014832,2000000000.0,-39.35966751422398,11.422065925265727,YES,1.6
120.85724306106567,2000000000.0,-39.38379823328536,11.121888269077012,YES,1.6
121.34546995162964,2000000000.0,-39.3836675400873,11.171604397610375,YES,1.6
121.82365989685059,2000000000.0,-39.411823599936156,11.370449317833849,YES,1.6
122.43308115005493,2000000000.0,-39.39008820310149,11.017475003831617,YES,1.6
122.96155309677124,2000000000.0,-39.39186889073191,11.060775757671406,YES,1.6
123.4222023487091,2000000000.0,-39.381894966027346,11.369980303967019,YES,1.6
123.9372992515564,2000000000.0,-39.369454722653614,11.411919085749833,YES,1.6
