Elapsed Time (s),Frequency (Hz),S11 (dB),S21 (dB),OBJ,Height (m)
0.51096510887146,2000000000.0,-31.290454469009404,12.450091467962874,NO,1.3
0.9810690879821777,2000000000.0,-29.839254929970576,9.740000736320704,NO,1.3
1.4539151191711426,2000000000.0,-33.60293520083322,12.456987394458537,NO,1.3
1.9242660999298096,2000000000.0,-30.46126106098862,12.461262848999299,NO,1.3
2.405363082885742,2000000000.0,-34.12783617933768,9.83395322153937,NO,1.3
2.874079704284668,2000000000.0,-34.449832165688676,-3.4696936337446553,NO,1.3
3.3472936153411865,2000000000.0,-34.54771005889245,8.738049517332879,NO,1.3
3.8176183700561523,2000000000.0,-35.06014829097837,6.704563296363595,NO,1.3
4.287971258163452,2000000000.0,-33.86818670353782,6.77173640940225,NO,1.3
4.780699729919434,2000000000.0,-32.479860712556196,8.108289883135404,NO,1.3
5.258357763290405,2000000000.0,-30.783168694107705,8.164944062258266,NO,1.3
5.733094692230225,2000000000.0,-32.46566491990343,7.71507129936105,NO,1.3
6.2061848640441895,2000000000.0,-34.5422448933808,7.686926111713534,NO,1.3
6.671959638595581,2000000000.0,-33.254756571248244,-13.488580553850895,NO,1.3
7.139846563339233,2000000000.0,-31.96515443830132,1.866171825818943,NO,1.3
7.607499361038208,2000000000.0,-32.895053528809854,-18.654854882437043,NO,1.3
8.076631784439087,2000000000.0,-32.20406592748266,-30.932002881107508,NO,1.3
8.549028873443604,2000000000.0,-32.55319701686648,-18.12397966610787,NO,1.3
9.018934726715088,2000000000.0,-32.40734155904633,-3.6873238871550433,NO,1.3
9.485119342803955,2000000000.0,-32.717006899115695,-1.5068161199194152,NO,1.3
9.951452255249023,2000000000.0,-33.88555769950838,-11.33008863181669,NO,1.3
10.418279886245728,2000000000.0,-33.63140981747279,5.24699674252008,NO,1.3
10.88511061668396,2000000000.0,-32.542645453959636,4.309329021396675,NO,1.3
11.387017250061035,2000000000.0,-32.91019081683863,5.737492012427074,NO,1.3
11.875667572021484,2000000000.0,-33.14566076243758,5.84230771163592,NO,1.3
12.352864742279053,2000000000.0,-32.896757836241896,7.359299754480303,NO,1.3
12.832108974456787,2000000000.0,-31.528302182404605,2.73604528049217,NO,1.3
13.321436643600464,2000000000.0,-32.476186002349564,-2.919971599575786,NO,1.3
13.797158479690552,2000000000.0,-33.99366024793728,-3.426200526731687,NO,1.3
14.263240814208984,2000000000.0,-35.93520585404596,-1.711583326611808,NO,1.3
14.732770681381226,2000000000.0,-32.88008967445377,2.5642695434178293,NO,1.3
15.199875354766846,2000000000.0,-36.64978574882276,4.734406312048399,NO,1.3
15.666344404220581,2000000000.0,-33.8340948780055,5.621515920491749,NO,1.3
16.14417052268982,2000000000.0,-31.168339406160435,4.579061773831457,NO,1.3
16.612226963043213,2000000000.0,-30.328255087094405,3.1230011809845464,NO,1.3
17.079230308532715,2000000000.0,-35.06839068547984,4.781490155323513,NO,1.3
17.55001187324524,2000000000.0,-33.563741589754585,-7.910750067734401,NO,1.3
18.040273189544678,2000000000.0,-34.65342661804885,4.312084416761799,NO,1.3
18.533297061920166,2000000000.0,-34.26579948607008,6.228209507372579,NO,1.3
19.020561933517456,2000000000.0,-34.574174402804175,6.4484911532052,NO,1.3
19.51749610900879,2000000000.0,-32.20591505156952,3.824733664143254,NO,1.3
19.986205339431763,2000000000.0,-34.98019085788418,6.63131653006719,NO,1.3
20.461355924606323,2000000000.0,-33.97106242198459,6.7855121760999415,NO,1.3
20.940233945846558,2000000000.0,-34.98148241489576,7.052946958871246,NO,1.3
21.409565925598145,2000000000.0,-34.467519940135524,7.55599795172153,NO,1.3
21.894611120224,2000000000.0,-35.01293642580522,7.08145997312257,NO,1.3
22.3622624874115,2000000000.0,-35.272282419260435,6.52678378999912,NO,1.3
22.850811004638672,2000000000.0,-35.254529563408795,5.151239027087362,NO,1.3
23.339673280715942,2000000000.0,-36.17035561944071,1.7128542272561378,NO,1.3
23.806523323059082,2000000000.0,-37.25940590331409,6.711058046787412,NO,1.3
24.296743392944336,2000000000.0,-35.08538372935702,6.855508079241504,NO,1.3
24.76370859146118,2000000000.0,-35.16388843569506,5.942298562747786,NO,1.3
25.236730813980103,2000000000.0,-35.2213145758552,-5.734560432443613,NO,1.3
25.71309185028076,2000000000.0,-34.488137078792164,-2.4273578171180694,NO,1.3
26.183194875717163,2000000000.0,-36.48779808380803,-2.14076045669954,NO,1.3
26.651834964752197,2000000000.0,-37.62792233148245,-10.376632971614947,NO,1.3
27.146064281463623,2000000000.0,-36.27872825272191,-6.136262938785011,NO,1.3
27.629186153411865,2000000000.0,-34.133749452612285,4.666362983439092,NO,1.3
28.11039400100708,2000000000.0,-36.053800817832,-0.21858262543203627,NO,1.3
28.603534936904907,2000000000.0,-34.41446349834442,2.9878107713850346,NO,1.3
29.085022687911987,2000000000.0,-34.82446418508994,2.113959986529142,NO,1.3
29.553843021392822,2000000000.0,-33.4242136890108,4.819036389375429,NO,1.3
30.0229549407959,2000000000.0,-33.430884674925366,6.4596595566737625,NO,1.3
30.49195957183838,2000000000.0,-34.479668570268146,5.640104433662998,NO,1.3
30.9628849029541,2000000000.0,-33.98782785785498,-3.9798983822997345,NO,1.3
31.430011510849,2000000000.0,-33.835761736909895,1.73541159386412,NO,1.3
31.928696155548096,2000000000.0,-35.97969939736882,3.7584274115019376,NO,1.3
32.40613913536072,2000000000.0,-34.18019030228222,7.109436582808609,NO,1.3
32.90038013458252,2000000000.0,-34.90616288079226,-3.578912407330858,NO,1.3
33.371641635894775,2000000000.0,-35.238949995411154,-1.9146893507097382,NO,1.3
33.864468812942505,2000000000.0,-34.70466147189083,-4.288162549609643,NO,1.3
