Elapsed Time (s),Frequency (Hz),S11 (dB),S21 (dB),OBJ,Height (m)
0.21958661079406738,2000000000.0,-42.19311375537268,-25.191107148330172,NO,0.0
0.4382896423339844,2000000000.0,-40.974996147636006,-19.270721377673315,NO,0.0
0.6538887023925781,2000000000.0,-40.58665360357701,-14.275006723839212,NO,0.0
0.869053840637207,2000000000.0,-40.15687244519359,-9.033115497033716,NO,0.0
1.087965965270996,2000000000.0,-40.43496396426954,-10.088362930520587,NO,0.0
1.30484938621521,2000000000.0,-40.582782034396075,-9.382917810555238,NO,0.0
1.5263516902923584,2000000000.0,-40.76910111108639,-8.960221083776222,NO,0.0
1.7699005603790283,2000000000.0,-40.42030744290089,-8.536910898933739,NO,0.0
1.9996473789215088,2000000000.0,-39.979944372049005,-7.782237273178269,NO,0.0
2.213827610015869,2000000000.0,-40.435582026052195,-9.048510013610997,NO,0.0
2.4514119625091553,2000000000.0,-40.31361927250501,-10.182380618052138,NO,0.0
2.671391248703003,2000000000.0,-40.583458141642964,-10.398727478761224,NO,0.0
2.9096758365631104,2000000000.0,-40.38434198005379,-10.925020349493217,NO,0.0
3.12387752532959,2000000000.0,-40.16100679779509,-10.546032847561351,NO,0.0
3.355564594268799,2000000000.0,-40.26706577670784,-11.068789716244316,NO,0.0
3.56919527053833,2000000000.0,-40.279102394668094,-11.064983955879978,NO,0.0
3.8128256797790527,2000000000.0,-40.185308545190814,-10.607592206487613,NO,0.0
4.025673866271973,2000000000.0,-40.27764922458249,-10.37079910897755,NO,0.0
4.242279529571533,2000000000.0,-40.27419759847133,-10.501622067986911,NO,0.0
4.461100339889526,2000000000.0,-40.244486477291886,-10.35948967181116,NO,0.0
4.675908327102661,2000000000.0,-40.371493042504405,-9.39574286413137,NO,0.0
4.892030477523804,2000000000.0,-40.29875559499124,-9.238922514597753,NO,0.0
5.1254541873931885,2000000000.0,-40.29821682030367,-9.097171087083925,NO,0.0
5.347327947616577,2000000000.0,-40.23765328274222,-8.587076401912126,NO,0.0
5.562286615371704,2000000000.0,-40.29962194745383,-8.391393226701254,NO,0.0
5.7828288078308105,2000000000.0,-39.953622763655616,-9.079648443687196,NO,0.0
6.001277685165405,2000000000.0,-39.945505731172986,-10.228484597351013,NO,0.0
6.219922065734863,2000000000.0,-40.0024922801924,-10.576434785526622,NO,0.0
6.44113826751709,2000000000.0,-40.648889642408676,-9.37336739472498,NO,0.0
6.66267991065979,2000000000.0,-40.39998880650639,-8.791737151650795,NO,0.0
6.890377998352051,2000000000.0,-39.94718441457027,-8.477514906627237,NO,0.0
7.1100287437438965,2000000000.0,-39.71208502017103,-8.7625253729168,NO,0.0
7.329300165176392,2000000000.0,-40.408500586189284,-9.960237320532281,NO,0.0
7.546468019485474,2000000000.0,-39.81045200560692,-8.862788713114764,NO,0.0
7.761071443557739,2000000000.0,-39.842434583886046,-8.536420713675385,NO,0.0
7.977407693862915,2000000000.0,-39.903153831578976,-8.770500610844858,NO,0.0
8.193395614624023,2000000000.0,-39.96138207501974,-8.682716684538656,NO,0.0
8.41012167930603,2000000000.0,-40.175608355714715,-8.635067355542764,NO,0.0
8.62905240058899,2000000000.0,-39.84070215873573,-8.34469221675732,NO,0.0
8.842071533203125,2000000000.0,-39.89192987875912,-8.481687126662676,NO,0.0
9.059738159179688,2000000000.0,-40.00088486300223,-8.374548018598295,NO,0.0
9.282671213150024,2000000000.0,-39.98118879375284,-8.585882103482794,NO,0.0
9.49835991859436,2000000000.0,-40.065308943898685,-8.606402015437734,NO,0.0
9.71591305732727,2000000000.0,-39.85380366848916,-8.459380591839436,NO,0.0
9.934171438217163,2000000000.0,-39.95820516552853,-8.204978168579487,NO,0.0
10.151061296463013,2000000000.0,-40.03542133948101,-8.202469773816436,NO,0.0
10.368855476379395,2000000000.0,-39.8534819119829,-8.087153051555777,NO,0.0
10.592813730239868,2000000000.0,-39.852192261510105,-8.718894560754581,NO,0.0
10.80710744857788,2000000000.0,-39.99613162048141,-8.415666597021316,NO,0.0
11.025108098983765,2000000000.0,-39.898588960980284,-8.404610704989304,NO,0.0
11.25400447845459,2000000000.0,-39.98179573397919,-8.081299034738409,NO,0.0
11.48247504234314,2000000000.0,-39.9358915938129,-8.088698059524482,NO,0.0
11.700843334197998,2000000000.0,-39.96895039370702,-8.357577340869476,NO,0.0
11.925695419311523,2000000000.0,-39.86552593838158,-8.38574747341439,NO,0.0
12.147822618484497,2000000000.0,-39.938081208288686,-8.398855839771464,NO,0.0
12.37272834777832,2000000000.0,-39.845126418391644,-8.33526876044443,NO,0.0
12.585997104644775,2000000000.0,-39.91525301090577,-8.312575670420339,NO,0.0
12.804022550582886,2000000000.0,-39.9046525880692,-8.284004684563177,NO,0.0
13.022237062454224,2000000000.0,-39.761045762228086,-8.340600047218324,NO,0.0
13.237179517745972,2000000000.0,-39.90973608539929,-8.48595639248756,NO,0.0
13.454708099365234,2000000000.0,-39.66630166313082,-8.685086998337669,NO,0.0
13.670389652252197,2000000000.0,-39.77937919758528,-8.796591807327125,NO,0.0
13.88563847541809,2000000000.0,-39.78310591886255,-8.787721518196731,NO,0.0
14.106333494186401,2000000000.0,-39.763472643840686,-9.056445538277561,NO,0.0
14.324015378952026,2000000000.0,-39.76857292739536,-9.370806345159851,NO,0.0
14.548521757125854,2000000000.0,-39.70136827664664,-9.760433861004563,NO,0.0
14.764196872711182,2000000000.0,-39.805140524825234,-10.44183230624338,NO,0.0
14.980384588241577,2000000000.0,-39.62245484940051,-10.384549630116467,NO,0.0
15.205550909042358,2000000000.0,-39.68563350514681,-10.472307447440253,NO,0.0
15.432777166366577,2000000000.0,-39.777748951922945,-11.869216891323608,NO,0.0
15.65386438369751,2000000000.0,-39.72667806374981,-12.467525366762565,NO,0.0
15.875924110412598,2000000000.0,-39.727395666734125,-12.14312028596308,NO,0.0
16.114139556884766,2000000000.0,-39.755151251671414,-12.339242826095802,NO,0.0
16.328981399536133,2000000000.0,-39.80112505851858,-11.779264821772934,NO,0.0
16.547605276107788,2000000000.0,-39.755998622582304,-11.553840417475262,NO,0.0
16.763160943984985,2000000000.0,-39.672217306743605,-12.44719381776589,NO,0.0
16.993745803833008,2000000000.0,-39.951481968991104,-12.74484933024038,NO,0.0
17.20950222015381,2000000000.0,-40.00619497573635,-13.547523948417307,NO,0.0
17.428439140319824,2000000000.0,-39.824525112008985,-14.167331646811682,NO,0.0
17.65661096572876,2000000000.0,-39.74182447291474,-19.14196183629131,NO,0.0
17.87502408027649,2000000000.0,-39.39706539551852,-21.591343961412008,NO,0.0
18.09104299545288,2000000000.0,-40.370923515105126,-18.462707833059355,NO,0.0
18.310718059539795,2000000000.0,-40.34063938187349,-16.35999788106718,NO,0.0
18.564348220825195,2000000000.0,-40.76798251361832,-14.883407624803876,NO,0.0
18.776689052581787,2000000000.0,-40.541936185318484,-11.165674245624036,NO,0.0
19.0024631023407,2000000000.0,-39.31730496801243,-10.356926349150989,NO,0.0
19.21402335166931,2000000000.0,-40.818229172524454,-8.722576449605354,NO,0.0
19.43083691596985,2000000000.0,-40.79799523986612,-7.98453445094093,NO,0.0
19.654098510742188,2000000000.0,-43.085341888950204,-9.111460659784916,NO,0.0
19.868695974349976,2000000000.0,-44.4015855306861,-8.806215451195866,NO,0.0
20.105762720108032,2000000000.0,-42.915574764665905,-8.814674563449218,NO,0.0
20.321913242340088,2000000000.0,-40.58227759018547,-9.357905736465204,NO,0.0
20.545440435409546,2000000000.0,-42.3118730848088,-9.643604163314347,NO,0.0
20.76676893234253,2000000000.0,-42.13986667094475,-9.290316732849359,NO,0.0
20.988324403762817,2000000000.0,-42.83726789502691,-9.283442767070643,NO,0.0
21.204402923583984,2000000000.0,-41.87395151792161,-9.840916745283645,NO,0.0
21.42016100883484,2000000000.0,-40.990661609018055,-10.176468891023024,NO,0.0
21.645121097564697,2000000000.0,-41.53729215297539,-11.028491789969657,NO,0.0
21.85996651649475,2000000000.0,-41.06279232317516,-11.592284117405963,NO,0.0
22.07736873626709,2000000000.0,-40.730122921285805,-11.915867758507929,NO,0.0
22.29301905632019,2000000000.0,-41.06431828162292,-13.147055523586996,NO,0.0
22.507747411727905,2000000000.0,-42.93564121649668,-12.303888955888345,NO,0.0
22.732819080352783,2000000000.0,-41.79868589509417,-13.142059962326865,NO,0.0
22.946351051330566,2000000000.0,-41.51607189624093,-15.256491265010235,NO,0.0
23.161138772964478,2000000000.0,-42.30220638645469,-14.927821068302285,NO,0.0
23.376131057739258,2000000000.0,-40.9694120485753,-22.315890749926698,NO,0.0
23.602242946624756,2000000000.0,-41.99022716848962,-19.44247439854818,NO,0.0
23.816629648208618,2000000000.0,-41.74696904407027,-16.747072347551825,NO,0.0
24.036223888397217,2000000000.0,-41.5811051137518,-15.288879592087818,NO,0.0
24.249199151992798,2000000000.0,-41.28097073023461,-16.685858566395698,NO,0.0
24.46418023109436,2000000000.0,-40.928255493950374,-16.512681696668672,NO,0.0
24.67902159690857,2000000000.0,-41.32206676938661,-16.58825080271785,NO,0.0
24.915313959121704,2000000000.0,-41.436116988517774,-17.102734823573073,NO,0.0
25.12755537033081,2000000000.0,-40.536462173951364,-18.960481866448198,NO,0.0
25.354741096496582,2000000000.0,-39.50879169514223,-19.93444333499865,NO,0.0
25.5697340965271,2000000000.0,-39.91773740141626,-25.918675056155717,NO,0.0
25.80011224746704,2000000000.0,-40.11733748087327,-25.9466637379918,NO,0.0
26.013384580612183,2000000000.0,-40.13823254639314,-21.6654056110805,NO,0.0
26.241726636886597,2000000000.0,-39.814916424647755,-21.18942084398124,NO,0.0
26.456603527069092,2000000000.0,-40.987954670972,-18.546249758512577,NO,0.0
26.677210092544556,2000000000.0,-39.72106974790924,-16.741574544840674,NO,0.0
26.913504600524902,2000000000.0,-39.27976799898011,-17.3164315791735,NO,0.0
27.12740206718445,2000000000.0,-39.28934974236377,-19.992924906671707,NO,0.0
27.35548448562622,2000000000.0,-38.64714825117896,-20.619363097966822,NO,0.0
27.568804025650024,2000000000.0,-39.268972815657655,-21.41714086462837,NO,0.0
27.791580200195312,2000000000.0,-40.76112776618502,-20.99379072666145,NO,0.0
28.012490034103394,2000000000.0,-38.58152081233841,-17.209106587555375,NO,0.0
28.227479457855225,2000000000.0,-37.80901958133106,-19.946867463033303,NO,0.0
28.44340968132019,2000000000.0,-38.49780784098582,-17.67042116817606,NO,0.0
28.660183668136597,2000000000.0,-39.47090411288706,-15.619410115826318,NO,0.0
28.875865697860718,2000000000.0,-39.82972866587939,-19.862038638977218,NO,0.0
29.100027799606323,2000000000.0,-40.34671124652558,-18.481315645379752,NO,0.0
29.31702709197998,2000000000.0,-38.95735534177322,-14.838035452415658,NO,0.0
29.531837224960327,2000000000.0,-42.02362999888699,-15.164051472806598,NO,0.0
29.748305082321167,2000000000.0,-40.468969128783705,-16.116305263256372,NO,0.0
29.968782424926758,2000000000.0,-41.472820985823645,-19.130975047924956,NO,0.0
30.186689615249634,2000000000.0,-41.14013007374168,-14.445272656116552,NO,0.0
30.402607917785645,2000000000.0,-41.31223514297787,-16.1654792197647,NO,0.0
30.621001958847046,2000000000.0,-40.93718060966718,-15.01646618767104,NO,0.0
30.8607497215271,2000000000.0,-41.50191943877938,-13.117257983665455,NO,0.0
31.075828313827515,2000000000.0,-41.78251057498489,-11.471533631653553,NO,0.0
31.306309461593628,2000000000.0,-40.75803091343591,-12.675818646661618,NO,0.0
31.51988434791565,2000000000.0,-39.67135148087991,-11.29310826427419,NO,0.0
31.750614166259766,2000000000.0,-39.42593242626457,-11.815633104282178,NO,0.0
31.964249849319458,2000000000.0,-39.102391784351035,-13.920001305344973,NO,0.0
32.199928760528564,2000000000.0,-39.651392343028995,-14.876288696418325,NO,0.0
32.41243839263916,2000000000.0,-39.41413702530137,-14.716845642130988,NO,0.0
32.62722611427307,2000000000.0,-39.368171145667226,-14.415124018408118,NO,0.0
32.840463399887085,2000000000.0,-39.26118600565975,-13.485507942457867,NO,0.0
33.056257486343384,2000000000.0,-39.2237497302873,-13.443526655120186,NO,0.0
33.27022743225098,2000000000.0,-39.18108127838562,-12.38662347425349,NO,0.0
33.492329359054565,2000000000.0,-39.15699396864159,-12.427182777395489,NO,0.0
33.709272146224976,2000000000.0,-39.20323389299955,-12.172817404178693,NO,0.0
33.926100730895996,2000000000.0,-39.25300789191284,-12.243766376962789,NO,0.0
34.16771173477173,2000000000.0,-39.29052311384145,-12.925679598469028,NO,0.0
34.40646696090698,2000000000.0,-39.43171540785442,-13.088640169106693,NO,0.0
34.62030291557312,2000000000.0,-39.85199751905937,-13.40234477693161,NO,0.0
34.844542503356934,2000000000.0,-39.69497818097122,-16.486672356314887,NO,0.0
35.058587074279785,2000000000.0,-39.869355601771375,-18.591673058663016,NO,0.0
35.293065786361694,2000000000.0,-39.77036581498534,-21.186126139344587,NO,0.0
35.50759482383728,2000000000.0,-39.48135334124693,-22.509129761323592,NO,0.0
35.72970676422119,2000000000.0,-39.23802646841875,-17.896123881156566,NO,0.0
35.951164960861206,2000000000.0,-39.24692073762874,-16.4174684142542,NO,0.0
36.16945791244507,2000000000.0,-39.517538272295354,-15.455395617731241,NO,0.0
36.39437389373779,2000000000.0,-39.52248552949159,-13.524230382290268,NO,0.0
36.610081911087036,2000000000.0,-40.40293533033406,-13.692431302056377,NO,0.0
36.83253240585327,2000000000.0,-39.93899634591635,-11.515196060646407,NO,0.0
37.04803919792175,2000000000.0,-40.59114321923127,-10.996817701669121,NO,0.0
37.270941495895386,2000000000.0,-40.25501004210706,-12.124842890894831,NO,0.0
37.49380850791931,2000000000.0,-39.787317289741736,-11.733318635415365,NO,0.0
37.706554889678955,2000000000.0,-39.266493672575976,-10.27192427070873,NO,0.0
37.922088623046875,2000000000.0,-39.35558603340962,-10.368971364610841,NO,0.0
38.145182847976685,2000000000.0,-40.00034642375592,-9.222339049321914,NO,0.0
38.36065316200256,2000000000.0,-39.8898393520129,-8.747565418666515,NO,0.0
38.57707118988037,2000000000.0,-39.86564302348876,-9.518535638734626,NO,0.0
38.805542945861816,2000000000.0,-39.93849419120685,-10.270337259992115,NO,0.0
39.020766735076904,2000000000.0,-39.902477627656026,-10.336734403509709,NO,0.0
39.24362301826477,2000000000.0,-38.98170761957164,-11.682199627888949,NO,0.0
39.46698570251465,2000000000.0,-39.6395826400084,-13.176495502522272,NO,0.0
39.686049699783325,2000000000.0,-40.06672845323911,-13.165676081009394,NO,0.0
39.90166401863098,2000000000.0,-40.07919617316294,-14.618910825172005,NO,0.0
40.11569547653198,2000000000.0,-40.23826640366902,-13.801831395543555,NO,0.0
40.3326780796051,2000000000.0,-40.3244253746294,-13.214360913590017,NO,0.0
40.54894304275513,2000000000.0,-40.212798636388776,-13.489196810070982,NO,0.0
40.7691650390625,2000000000.0,-39.88435035611793,-13.812631625024592,NO,0.0
40.99486756324768,2000000000.0,-39.91518914625008,-14.320065750536202,NO,0.0
41.21253848075867,2000000000.0,-39.61274474465717,-15.122341281369769,NO,0.0
41.442626953125,2000000000.0,-39.925734133331275,-19.214111063928442,NO,0.0
41.65946340560913,2000000000.0,-39.88519890284171,-18.010896125399917,NO,0.0
41.87639617919922,2000000000.0,-39.595933497956665,-14.658583125870368,NO,0.0
42.10999941825867,2000000000.0,-39.9871272526837,-10.725478843005174,NO,0.0
42.322699308395386,2000000000.0,-40.38216023991146,-10.490395796880282,NO,0.0
42.56670427322388,2000000000.0,-40.908605515510324,-8.826998964072244,NO,0.0
42.78250432014465,2000000000.0,-41.151780939266885,-8.360368295146118,NO,0.0
43.00309181213379,2000000000.0,-41.10699087740849,-8.541302630561688,NO,0.0
43.22365355491638,2000000000.0,-41.11504066523027,-8.981295847080554,NO,0.0
43.45101189613342,2000000000.0,-41.3707957521838,-9.516320710274105,NO,0.0
43.67753338813782,2000000000.0,-41.49741107713045,-10.209413640760058,NO,0.0
43.90827178955078,2000000000.0,-41.00848188983793,-10.117414968248994,NO,0.0
44.14534544944763,2000000000.0,-40.54642180780544,-9.978955680952081,NO,0.0
44.359107971191406,2000000000.0,-40.738541838780016,-10.184376231851688,NO,0.0
44.57874345779419,2000000000.0,-40.82384185878355,-10.291406394373531,NO,0.0
44.806355237960815,2000000000.0,-40.09682126753483,-10.396686997506144,NO,0.0
45.02287244796753,2000000000.0,-41.04477188359715,-10.779764240732037,NO,0.0
45.238714933395386,2000000000.0,-42.25275186336128,-11.022670108518664,NO,0.0
45.45854663848877,2000000000.0,-43.01109776159012,-10.672659418875895,NO,0.0
45.69134259223938,2000000000.0,-44.00844677576454,-11.052843775059982,NO,0.0
45.906286001205444,2000000000.0,-45.303928184753815,-11.538404597483908,NO,0.0
46.120773792266846,2000000000.0,-44.755670315117754,-11.36630768548047,NO,0.0
46.33821988105774,2000000000.0,-43.37932044767099,-11.407352750365495,NO,0.0
46.562265157699585,2000000000.0,-43.48060805298786,-11.901712816465908,NO,0.0
46.776169776916504,2000000000.0,-43.75876841028234,-13.22602316437127,NO,0.0
47.00676870346069,2000000000.0,-43.90473499453162,-12.0608480101242,NO,0.0
47.22054433822632,2000000000.0,-44.132208811859655,-12.242579237257607,NO,0.0
47.4488422870636,2000000000.0,-44.001991473720885,-10.268051784825964,NO,0.0
47.6669545173645,2000000000.0,-43.261267291171784,-12.365267210278335,NO,0.0
47.88270854949951,2000000000.0,-42.28307946843035,-10.536946110013625,NO,0.0
48.09965753555298,2000000000.0,-42.97122196196672,-10.208334184929857,NO,0.0
48.31573009490967,2000000000.0,-43.10509725534282,-11.35260286630868,NO,0.0
48.56139278411865,2000000000.0,-42.8160145334748,-15.166232986434746,NO,0.0
48.79523205757141,2000000000.0,-43.24769293570611,-18.144458952644374,NO,0.0
49.01100254058838,2000000000.0,-41.83902824533503,-14.492025242247102,NO,0.0
49.24127173423767,2000000000.0,-39.75621471150274,-14.55177330948464,NO,0.0
49.45558977127075,2000000000.0,-39.84693166982656,-14.971526535865038,NO,0.0
49.67791390419006,2000000000.0,-38.74115613994288,-13.451226571676997,NO,0.0
49.91427826881409,2000000000.0,-38.368691804332144,-11.451459772245807,NO,0.0
50.12894368171692,2000000000.0,-37.751645173328754,-11.817388145060193,NO,0.0
50.34891963005066,2000000000.0,-37.724291192938914,-9.712186845965205,NO,0.0
50.565666913986206,2000000000.0,-37.94196611390715,-8.989395957747753,NO,0.0
50.78725457191467,2000000000.0,-38.974450420525905,-8.085908244819336,NO,0.0
