Elapsed Time (s),Frequency (Hz),S11 (dB),S21 (dB),OBJ,Height (m)
0.22966909408569336,2000000000.0,-41.795855321588306,-22.052895053401883,NO,0.0
0.4590764045715332,2000000000.0,-41.62672224440019,-8.72417474778267,NO,0.0
0.6879684925079346,2000000000.0,-41.65949526344029,-8.697841011468672,NO,0.0
0.9196116924285889,2000000000.0,-41.59556891336587,-8.538486544874342,NO,0.0
1.1366150379180908,2000000000.0,-41.66380779107445,-8.321253859652549,NO,0.0
1.357889175415039,2000000000.0,-41.63536408225221,-8.180086521023153,NO,0.0
1.5861337184906006,2000000000.0,-41.60004727654892,-8.14058880842659,NO,0.0
1.8029053211212158,2000000000.0,-41.62863222771016,-8.110819611677439,NO,0.0
2.033830165863037,2000000000.0,-41.66667516186577,-8.066685350997066,NO,0.0
2.2494170665740967,2000000000.0,-41.68020433659832,-8.068346530431006,NO,0.0
2.4858007431030273,2000000000.0,-41.64847138381563,-8.15975822823458,NO,0.0
2.705376148223877,2000000000.0,-41.604624269887,-8.509411896574417,NO,0.0
2.9467926025390625,2000000000.0,-41.57091292069975,-8.907088689632205,NO,0.0
3.1705667972564697,2000000000.0,-41.538202215972994,-9.014052343100886,NO,0.0
3.405132293701172,2000000000.0,-41.469727218622694,-9.317361042611015,NO,0.0
3.633681535720825,2000000000.0,-41.49086610798463,-10.124600368676564,NO,0.0
3.8499486446380615,2000000000.0,-41.50097957319757,-11.05697766473305,NO,0.0
4.074711084365845,2000000000.0,-41.538318975917576,-11.818764754505375,NO,0.0
4.30064582824707,2000000000.0,-41.5081976452521,-11.915651280907731,NO,0.0
4.529553651809692,2000000000.0,-41.452992850506405,-12.2961103506947,NO,0.0
4.757540225982666,2000000000.0,-41.473883184175534,-13.804060139944372,NO,0.0
4.9919421672821045,2000000000.0,-41.46132211018006,-13.361276854458392,NO,0.0
5.215699195861816,2000000000.0,-41.50211688343653,-13.140522146514414,NO,0.0
5.440932512283325,2000000000.0,-41.49216790558273,-15.015834134807646,NO,0.0
5.674228191375732,2000000000.0,-41.480562315433396,-15.194422559974878,NO,0.0
5.901902437210083,2000000000.0,-41.47123275255552,-15.512769845138168,NO,0.0
6.137682199478149,2000000000.0,-41.431090911167594,-15.258097384807689,NO,0.0
6.3619139194488525,2000000000.0,-41.43118121661223,-16.677613222262018,NO,0.0
6.588021516799927,2000000000.0,-41.400713920463474,-19.212215500121715,NO,0.0
6.812119245529175,2000000000.0,-41.376451823406285,-20.309656019764756,NO,0.0
7.049725532531738,2000000000.0,-41.299836164135655,-25.496205465524046,NO,0.0
7.283349990844727,2000000000.0,-41.269688626020766,-22.545221911355355,NO,0.0
7.500436782836914,2000000000.0,-41.27529285232987,-21.317086117080848,NO,0.0
7.742276191711426,2000000000.0,-41.217908295419875,-15.199895787987412,NO,0.0
7.968961954116821,2000000000.0,-41.05912276164481,-11.289019363066785,NO,0.0
8.19869065284729,2000000000.0,-41.024608674037246,-10.206349143498215,NO,0.0
8.42522144317627,2000000000.0,-41.05958230226151,-10.392006169816757,NO,0.0
8.651247262954712,2000000000.0,-41.0287800145758,-10.360212701614785,NO,0.0
8.878080606460571,2000000000.0,-41.02119221880048,-10.352426616821916,NO,0.0
9.09554648399353,2000000000.0,-41.00680582321103,-9.612670025645278,NO,0.0
9.322912216186523,2000000000.0,-40.99457796411183,-9.47176531485457,NO,0.0
9.547116756439209,2000000000.0,-40.96041961637714,-9.137199168069037,NO,0.0
9.764328956604004,2000000000.0,-40.967695687546104,-8.95147588840848,NO,0.0
9.987833738327026,2000000000.0,-40.93501057899676,-8.72541660777995,NO,0.0
10.204842329025269,2000000000.0,-40.95488956405694,-8.53780887262014,NO,0.0
10.428251504898071,2000000000.0,-40.92053517452706,-8.27304055507707,NO,0.0
10.650810718536377,2000000000.0,-40.883942481880354,-8.254968627838103,NO,0.0
10.869506359100342,2000000000.0,-40.909098081545864,-8.30213885676824,NO,0.0
11.09334421157837,2000000000.0,-40.839331897500145,-8.311559005125764,NO,0.0
11.328494548797607,2000000000.0,-40.90197067486522,-8.226967069079942,NO,0.0
11.547897815704346,2000000000.0,-40.91342597233342,-8.45443232955156,NO,0.0
11.76438593864441,2000000000.0,-40.86625432475631,-8.473218277581127,NO,0.0
11.988248109817505,2000000000.0,-40.731537743797276,-8.819197332329283,NO,0.0
12.19896674156189,2000000000.0,-40.7800574337536,-8.682921358887297,NO,0.0
12.415414333343506,2000000000.0,-40.95612150697329,-8.812669917521676,NO,0.0
12.638285875320435,2000000000.0,-41.00580411783149,-8.628843473624464,NO,0.0
12.848811626434326,2000000000.0,-41.19113321058841,-8.230206363411428,NO,0.0
13.070398092269897,2000000000.0,-41.6778825201095,-8.189579814662197,NO,0.0
13.302762031555176,2000000000.0,-41.50322759680005,-8.325994253952267,NO,0.0
13.529717445373535,2000000000.0,-41.21150366314694,-8.81746263393725,NO,0.0
13.740175247192383,2000000000.0,-40.925769356092694,-9.67994774082624,NO,0.0
13.95030403137207,2000000000.0,-40.812168998099,-9.59638547498796,NO,0.0
14.176293134689331,2000000000.0,-40.957805337152834,-9.044983197857473,NO,0.0
14.396188497543335,2000000000.0,-41.1016152730617,-9.264742664384269,NO,0.0
14.609207391738892,2000000000.0,-41.18679807052905,-9.187892679510117,NO,0.0
14.830646753311157,2000000000.0,-41.31150134863256,-9.487514331998725,NO,0.0
15.049389123916626,2000000000.0,-41.410616080794625,-9.123063145310816,NO,0.0
15.280625343322754,2000000000.0,-41.94480469329889,-9.55566905808231,NO,0.0
15.507615327835083,2000000000.0,-42.097242934398764,-9.005936513228956,NO,0.0
15.738490104675293,2000000000.0,-41.93748780270329,-8.99804211736908,NO,0.0
15.948939561843872,2000000000.0,-41.76737176511778,-8.072092714271463,NO,0.0
16.166461944580078,2000000000.0,-41.735062215968014,-8.010164952367385,NO,0.0
16.395977020263672,2000000000.0,-41.75727738171999,-8.193044698618188,NO,0.0
16.61417245864868,2000000000.0,-41.12685853725892,-8.9428688789055,NO,0.0
16.83987045288086,2000000000.0,-41.25058000244213,-9.16161106905798,NO,0.0
17.05120038986206,2000000000.0,-41.45397299189167,-9.656058297875932,NO,0.0
17.271109580993652,2000000000.0,-41.464353525921,-9.320816950438836,NO,0.0
17.49696660041809,2000000000.0,-41.675265380985195,-9.172110897852724,NO,0.0
17.713887453079224,2000000000.0,-42.069718102885325,-10.018466752430523,NO,0.0
17.945811986923218,2000000000.0,-42.45906803110542,-10.894845447115538,NO,0.0
18.16372299194336,2000000000.0,-42.437732154285264,-13.254738558723362,NO,0.0
18.383384704589844,2000000000.0,-41.63945364006771,-13.29239322881625,NO,0.0
18.614668369293213,2000000000.0,-41.366725562109856,-11.660527314581943,NO,0.0
18.840863704681396,2000000000.0,-41.093675438428654,-12.539950029648475,NO,0.0
19.05299973487854,2000000000.0,-40.54192028560116,-13.726060345160684,NO,0.0
19.273840188980103,2000000000.0,-40.87418860856335,-11.60288763122054,NO,0.0
19.487240314483643,2000000000.0,-41.06139934006975,-10.85157763501238,NO,0.0
19.69763708114624,2000000000.0,-40.88925863140042,-11.489724020634018,NO,0.0
19.914886713027954,2000000000.0,-40.674350814757645,-14.600321337967292,NO,0.0
20.129732608795166,2000000000.0,-40.350460192939586,-24.175611199732984,NO,0.0
20.344159841537476,2000000000.0,-41.04804429268458,-19.287883167091692,NO,0.0
20.57361626625061,2000000000.0,-41.09000141079748,-26.45050700570096,NO,0.0
20.79928994178772,2000000000.0,-41.39818708820674,-16.14065358102639,NO,0.0
21.023951768875122,2000000000.0,-41.60653634062179,-12.168918319077186,NO,0.0
21.2339768409729,2000000000.0,-41.16454106454164,-10.843098998073469,NO,0.0
21.445163011550903,2000000000.0,-41.08749483393757,-11.243394724412955,NO,0.0
21.66175365447998,2000000000.0,-40.87888874350738,-10.39048532844169,NO,0.0
21.888684034347534,2000000000.0,-41.04522985702583,-8.014690570928082,NO,0.0
22.09864854812622,2000000000.0,-41.2856513274408,-7.718350326546518,NO,0.0
22.31934142112732,2000000000.0,-41.354146110132845,-8.350968869200026,NO,0.0
22.541187286376953,2000000000.0,-41.882355968304,-8.519985639743378,NO,0.0
22.77679944038391,2000000000.0,-42.013547927799486,-8.621288834250105,NO,0.0
22.994855642318726,2000000000.0,-41.81942390281618,-8.170981712183181,NO,0.0
23.222747087478638,2000000000.0,-41.70428894617341,-8.020963238773579,NO,0.0
23.442181825637817,2000000000.0,-41.64935350471686,-8.353669880264963,NO,0.0
23.65675163269043,2000000000.0,-41.36298497689933,-9.866642128617274,NO,0.0
23.884496688842773,2000000000.0,-41.5109227748801,-14.140575672838128,NO,0.0
24.09530019760132,2000000000.0,-41.34070040186777,-11.855765126787155,NO,0.0
24.31914234161377,2000000000.0,-41.05716117860933,-9.841848617777325,NO,0.0
24.545047998428345,2000000000.0,-40.731829946745705,-10.065986381560565,NO,0.0
24.767159700393677,2000000000.0,-41.14945097031631,-10.634418102127137,NO,0.0
24.98481273651123,2000000000.0,-41.096210653585466,-10.376367128875074,NO,0.0
25.19759225845337,2000000000.0,-41.15382335989385,-10.363988243154958,NO,0.0
25.415444374084473,2000000000.0,-41.21602213858799,-9.539173751331898,NO,0.0
25.63875913619995,2000000000.0,-41.23241466332078,-10.615072475026523,NO,0.0
25.85634708404541,2000000000.0,-41.40995869511789,-11.221644689282769,NO,0.0
26.078933715820312,2000000000.0,-41.81048068875873,-10.862164481824529,NO,0.0
26.302908182144165,2000000000.0,-41.228212871190195,-10.66606062152631,NO,0.0
26.52071499824524,2000000000.0,-41.11987638584054,-10.5151186805729,NO,0.0
26.744714975357056,2000000000.0,-41.25857367032988,-12.108517645289556,NO,0.0
26.96529197692871,2000000000.0,-41.3680346293144,-12.432977579848368,NO,0.0
27.17605209350586,2000000000.0,-41.86076386256211,-8.555957705117365,NO,0.0
27.401195287704468,2000000000.0,-41.72218717636652,-7.469498519057909,NO,0.0
27.620291709899902,2000000000.0,-41.398471895712376,-7.766708724703721,NO,0.0
27.851170778274536,2000000000.0,-41.38606667349028,-9.496588005976944,NO,0.0
28.073981285095215,2000000000.0,-42.087938042099495,-11.077355974248636,NO,0.0
28.283871173858643,2000000000.0,-41.79192045582816,-12.759850534571775,NO,0.0
28.49572515487671,2000000000.0,-41.806784386880345,-15.106494794819005,NO,0.0
28.71538519859314,2000000000.0,-41.84014252023733,-12.62946509302793,NO,0.0
28.937180042266846,2000000000.0,-41.617704744152995,-14.511112145339588,NO,0.0
29.148043155670166,2000000000.0,-40.71125650868802,-13.985173118797473,NO,0.0
29.363686561584473,2000000000.0,-40.88098199306276,-12.17647863078308,NO,0.0
29.589207887649536,2000000000.0,-42.73077607759472,-11.51818227223891,NO,0.0
29.80061149597168,2000000000.0,-41.99145465104696,-12.624534658145517,NO,0.0
30.030043125152588,2000000000.0,-42.00991975647307,-14.392819387267167,NO,0.0
30.241560459136963,2000000000.0,-41.94051896645148,-13.421858280122834,NO,0.0
30.463125467300415,2000000000.0,-41.747180791004624,-18.163326323069388,NO,0.0
30.681251525878906,2000000000.0,-41.05751608900473,-26.153643323552785,NO,0.0
30.89295196533203,2000000000.0,-41.32846128754245,-26.28769111116329,NO,0.0
31.10383939743042,2000000000.0,-40.43427547914188,-14.452055852440882,NO,0.0
31.329133987426758,2000000000.0,-39.9072701728947,-11.709217199566792,NO,0.0
31.554527759552002,2000000000.0,-39.65544266694549,-12.046077578160844,NO,0.0
31.777658700942993,2000000000.0,-40.130981279101256,-14.251480664238427,NO,0.0
32.005417823791504,2000000000.0,-40.52339884505372,-8.851282596805717,NO,0.0
32.22717785835266,2000000000.0,-40.151577546373034,-7.8630919908316335,NO,0.0
32.44823932647705,2000000000.0,-39.406563813209786,-8.830441414270656,NO,0.0
32.66543889045715,2000000000.0,-39.33162609619875,-8.564428249462583,NO,0.0
32.89322543144226,2000000000.0,-39.52823358542142,-8.025338561897984,NO,0.0
33.12727427482605,2000000000.0,-39.358190182237074,-8.391712218057622,NO,0.0
33.339539527893066,2000000000.0,-39.80775197036737,-8.239340169942803,NO,0.0
33.54918932914734,2000000000.0,-40.68635471807858,-10.280691561537395,NO,0.0
33.77189588546753,2000000000.0,-38.8333441245855,-10.146137938327177,NO,0.0
33.991506576538086,2000000000.0,-38.45017197406448,-12.488794898243201,NO,0.0
34.227494955062866,2000000000.0,-38.62592361104072,-28.426530390373543,NO,0.0
34.438735008239746,2000000000.0,-38.79660609307935,-20.305444946442677,NO,0.0
34.649030923843384,2000000000.0,-38.86288185962887,-15.360762721088213,NO,0.0
34.87116861343384,2000000000.0,-40.04012761533188,-12.46872959686123,NO,0.0
35.08340311050415,2000000000.0,-39.79256214697138,-14.866943286699401,NO,0.0
35.296204805374146,2000000000.0,-40.25474781997309,-27.128232128514366,NO,0.0
35.52822017669678,2000000000.0,-39.95002174689868,-23.738279091530753,NO,0.0
35.740357398986816,2000000000.0,-40.91004859619087,-14.588487958571847,NO,0.0
35.95262861251831,2000000000.0,-42.0811482935101,-15.568469693308327,NO,0.0
36.1891770362854,2000000000.0,-42.57515435047897,-17.381132282296875,NO,0.0
36.40001201629639,2000000000.0,-42.60984901098726,-28.215369095823082,NO,0.0
36.62281656265259,2000000000.0,-43.13982326349546,-19.395213587498887,NO,0.0
36.846975803375244,2000000000.0,-43.26958760635813,-19.32506173326717,NO,0.0
37.06636643409729,2000000000.0,-43.567584616597514,-29.89851531265849,NO,0.0
37.28934574127197,2000000000.0,-42.77998463637986,-27.017339011638928,NO,0.0
37.50131368637085,2000000000.0,-42.65715878401498,-23.099666248611946,NO,0.0
37.72290396690369,2000000000.0,-42.83084949922283,-25.96630631583909,NO,0.0
37.940794944763184,2000000000.0,-42.845030240159964,-28.791996740104153,NO,0.0
38.17987847328186,2000000000.0,-42.94280479894205,-22.1514894286639,NO,0.0
38.392802238464355,2000000000.0,-43.00000516013586,-25.477193179079638,NO,0.0
38.616607904434204,2000000000.0,-43.12123495574467,-17.65308750652426,NO,0.0
38.83011770248413,2000000000.0,-43.14931656783638,-13.964474899828009,NO,0.0
39.04179096221924,2000000000.0,-42.73008461291779,-10.470039883108733,NO,0.0
39.27933192253113,2000000000.0,-42.93526413834841,-10.771244865519641,NO,0.0
39.498791456222534,2000000000.0,-43.112937991073885,-13.279454844961979,NO,0.0
39.7191641330719,2000000000.0,-43.035840534851395,-11.891290469353024,NO,0.0
39.939478635787964,2000000000.0,-42.68991101984988,-10.349862476435733,NO,0.0
40.14983320236206,2000000000.0,-42.10989873930142,-13.750666460249587,NO,0.0
40.37642049789429,2000000000.0,-42.6909496720948,-15.633708213521247,NO,0.0
40.59755182266235,2000000000.0,-42.683982818117954,-11.914707262044196,NO,0.0
40.81790900230408,2000000000.0,-42.39170104015298,-9.673996724336975,NO,0.0
41.03570294380188,2000000000.0,-42.468040361502524,-8.380381697042733,NO,0.0
41.24491357803345,2000000000.0,-42.4454070444633,-7.613085809916992,NO,0.0
41.48200297355652,2000000000.0,-41.748977399723174,-7.579318977119351,NO,0.0
41.69175863265991,2000000000.0,-41.248530493019175,-7.351162130101832,NO,0.0
41.90856385231018,2000000000.0,-41.1612491709315,-8.894106712730068,NO,0.0
42.1293683052063,2000000000.0,-40.96956764420301,-10.538336087487306,NO,0.0
42.34189820289612,2000000000.0,-40.68025168251742,-15.309234555822009,NO,0.0
42.5542094707489,2000000000.0,-40.65492700181668,-17.787925708456722,NO,0.0
42.77914118766785,2000000000.0,-40.60494000129155,-13.139770356866453,NO,0.0
42.990898847579956,2000000000.0,-40.541393142655096,-10.239654220151703,NO,0.0
43.2011616230011,2000000000.0,-40.76052477097726,-9.724022707680536,NO,0.0
43.4372992515564,2000000000.0,-40.916608826343264,-8.708348651987407,NO,0.0
43.64831042289734,2000000000.0,-40.779175781366334,-7.820752861593061,NO,0.0
43.87002444267273,2000000000.0,-40.61810789134895,-7.596122515856392,NO,0.0
44.08901524543762,2000000000.0,-40.71490869880593,-7.958473359567472,NO,0.0
44.29957866668701,2000000000.0,-40.76748223279664,-8.045765161186795,NO,0.0
44.52170491218567,2000000000.0,-40.53403197272907,-8.39952835561945,NO,0.0
44.739946126937866,2000000000.0,-40.41523080881883,-9.148469538507818,NO,0.0
44.95099186897278,2000000000.0,-40.6391451558007,-9.420117879904247,NO,0.0
45.1747522354126,2000000000.0,-41.17535086427053,-10.929595117463965,NO,0.0
45.39721703529358,2000000000.0,-41.877244581082344,-12.556933548850822,NO,0.0
45.63108801841736,2000000000.0,-42.54311926129522,-11.612420304650112,NO,0.0
45.841612339019775,2000000000.0,-41.66461447726063,-10.28647930561636,NO,0.0
46.053401708602905,2000000000.0,-40.70783082681145,-9.82266091709893,NO,0.0
46.27578091621399,2000000000.0,-42.13974287064707,-9.209517218794062,NO,0.0
46.49702787399292,2000000000.0,-42.59987275837876,-8.949213496544232,NO,0.0
46.71913766860962,2000000000.0,-42.48450234523765,-9.414210693049144,NO,0.0
46.94219183921814,2000000000.0,-42.269431204927656,-10.086708175026901,NO,0.0
47.1538245677948,2000000000.0,-41.585130778874,-10.691041817587019,NO,0.0
47.37194752693176,2000000000.0,-41.00630889562099,-11.32449520536057,NO,0.0
47.60096597671509,2000000000.0,-41.83465625526465,-12.255473783220378,NO,0.0
47.82095646858215,2000000000.0,-42.214494200868614,-9.943354069599629,NO,0.0
48.03886127471924,2000000000.0,-42.39945977622184,-8.434531192131654,NO,0.0
48.25139856338501,2000000000.0,-42.68204614563729,-8.237124463639097,NO,0.0
48.47193121910095,2000000000.0,-42.42087056836991,-8.374733665482195,NO,0.0
48.69739389419556,2000000000.0,-42.141843637966325,-9.095749961849872,NO,0.0
48.91482639312744,2000000000.0,-41.64226534113824,-12.81895494829639,NO,0.0
49.13732433319092,2000000000.0,-43.518799101615436,-25.361957213258247,NO,0.0
49.34694480895996,2000000000.0,-43.86649658381086,-27.529744653274108,NO,0.0
49.57711911201477,2000000000.0,-42.92552913109888,-19.894779413184533,NO,0.0
49.799039125442505,2000000000.0,-43.02970229891123,-22.139135492736987,NO,0.0
50.03344655036926,2000000000.0,-42.573469300256825,-19.143942296704576,NO,0.0
50.255101680755615,2000000000.0,-42.23608712227785,-21.855464067545576,NO,0.0
50.4726128578186,2000000000.0,-42.158272789253566,-11.236498366030428,NO,0.0
50.70538020133972,2000000000.0,-43.39526855563722,-13.156023649616909,NO,0.0
50.9296977519989,2000000000.0,-43.74028099017099,-18.336744747289238,NO,0.0
51.138100385665894,2000000000.0,-43.40803931093757,-12.399905319722697,NO,0.0
51.34826159477234,2000000000.0,-44.069076411704145,-9.675218223876724,NO,0.0
51.56300950050354,2000000000.0,-43.783381177197015,-8.63768610672195,NO,0.0
51.7862548828125,2000000000.0,-44.29954070440074,-9.055769585031019,NO,0.0
51.99530649185181,2000000000.0,-43.634158152045195,-13.124105064403349,NO,0.0
52.21338367462158,2000000000.0,-43.20642244469826,-14.06495328301535,NO,0.0
52.436970710754395,2000000000.0,-43.240886370916016,-8.790800488812756,NO,0.0
52.64888906478882,2000000000.0,-43.50280555562527,-7.729777712941653,NO,0.0
52.88991069793701,2000000000.0,-43.4093279516937,-7.844856262428877,NO,0.0
53.10033321380615,2000000000.0,-43.78441019829958,-8.05602135287976,NO,0.0
53.32629728317261,2000000000.0,-43.91668038283514,-15.97311278712821,NO,0.0
53.53621792793274,2000000000.0,-43.56973985190067,-21.88258760973355,NO,0.0
