Elapsed Time (s),Frequency (Hz),S11 (dB),S21 (dB),OBJ,Height (m)
0.5192441940307617,1600000000.0,-37.84008350676178,6.6819053809851345,YES,1.3
1.0193052291870117,1600000000.0,-37.74724477331466,8.383176688764346,YES,1.3
1.475093126296997,1600000000.0,-37.749413436456635,8.391151256903989,YES,1.3
1.9276978969573975,1600000000.0,-37.75571945960972,8.389700064527435,YES,1.3
2.399951457977295,1600000000.0,-37.73715329454348,8.351945970139424,YES,1.3
2.8716492652893066,1600000000.0,-37.76877363967794,8.38467786547133,YES,1.3
3.3388149738311768,1600000000.0,-37.77825942411826,8.369861125411585,YES,1.3
3.799393653869629,1600000000.0,-37.79348871135891,8.35010021583206,YES,1.3
4.251075983047485,1600000000.0,-37.73435523673705,8.382022519772946,YES,1.3
4.70111870765686,1600000000.0,-37.78190984502157,8.371445202760494,YES,1.3
5.1425676345825195,1600000000.0,-37.74313976120693,8.382939001758293,YES,1.3
5.576119899749756,1600000000.0,-37.748741637000805,8.356256101575308,YES,1.3
6.024066209793091,1600000000.0,-37.76314190073113,8.383915137744815,YES,1.3
6.465184450149536,1600000000.0,-37.52683140696255,7.763985951883862,YES,1.3
6.902475595474243,1600000000.0,-37.39787385306045,7.736168548557307,YES,1.3
7.348514795303345,1600000000.0,-37.51260664825829,7.766152622521233,YES,1.3
7.789910078048706,1600000000.0,-37.40627746573915,7.693518360764152,YES,1.3
8.230697393417358,1600000000.0,-37.700324976763255,7.608372052334218,YES,1.3
8.669052839279175,1600000000.0,-37.62986606751012,7.6220829776004475,YES,1.3
9.128563404083252,1600000000.0,-37.642436210150294,7.619791477457747,YES,1.3
9.566243171691895,1600000000.0,-37.62316883650324,7.624296694672685,YES,1.3
10.02861213684082,1600000000.0,-37.61603741591932,7.633943024715036,YES,1.3
10.469563484191895,1600000000.0,-37.631759604188616,7.624812932328481,YES,1.3
10.905247926712036,1600000000.0,-37.640446397531065,7.612128301523576,YES,1.3
11.381582498550415,1600000000.0,-37.627859934912536,7.611619704522211,YES,1.3
11.81921935081482,1600000000.0,-37.66211824969996,7.6087034308219454,YES,1.3
12.255641222000122,1600000000.0,-37.65045808463178,7.6176602678681515,YES,1.3
12.690862655639648,1600000000.0,-37.638164459030364,7.62756917416297,YES,1.3
13.12642502784729,1600000000.0,-37.65251904667534,7.620915747559083,YES,1.3
13.568415880203247,1600000000.0,-37.643078209997654,7.615030219613569,YES,1.3
14.004999876022339,1600000000.0,-37.65678666872365,7.6189762012082465,YES,1.3
14.448648452758789,1600000000.0,-37.6263449238133,7.592929616239439,YES,1.3
14.889053106307983,1600000000.0,-37.62249472902569,7.5921755159596955,YES,1.3
15.338024854660034,1600000000.0,-37.19977705102569,7.523199519121494,YES,1.3
15.79267954826355,1600000000.0,-36.44488266865282,7.4500252857074925,YES,1.3
16.352409601211548,1600000000.0,-35.95104738995915,7.397149872647924,YES,1.3
16.95953130722046,1600000000.0,-35.77070160279912,7.39701035477447,YES,1.3
17.501187801361084,1600000000.0,-36.368699167798084,7.466078303375504,YES,1.3
18.061038732528687,1600000000.0,-36.70126514995422,7.540251534314577,YES,1.3
18.64805817604065,1600000000.0,-36.66163057337221,7.5346543285712215,YES,1.3
19.200817108154297,1600000000.0,-36.7072801425548,7.535999794834379,YES,1.3
19.757118940353394,1600000000.0,-36.71524836232238,7.549614968253536,YES,1.3
20.30142092704773,1600000000.0,-36.74117030898176,7.546863971118636,YES,1.3
20.858704566955566,1600000000.0,-36.598440132795666,7.482307101576842,YES,1.3
21.405423164367676,1600000000.0,-37.138225738747096,7.639354612433776,YES,1.3
21.951133251190186,1600000000.0,-37.30516895909118,7.618997711826786,YES,1.3
22.493499517440796,1600000000.0,-37.49359809871963,7.64096838915656,YES,1.3
23.04706335067749,1600000000.0,-37.47560401085637,7.639619178593684,YES,1.3
23.614267110824585,1600000000.0,-37.45302653749148,7.6420229139169615,YES,1.3
24.196927309036255,1600000000.0,-37.489061990954355,7.634489489135871,YES,1.3
24.739834547042847,1600000000.0,-37.499913400058816,7.637235726941408,YES,1.3
25.288974046707153,1600000000.0,-37.49665041550146,7.639119764697087,YES,1.3
25.78065252304077,1600000000.0,-37.4763104170008,7.636441539194384,YES,1.3
26.274898052215576,1600000000.0,-37.494929883603966,7.644616057892145,YES,1.3
26.773462533950806,1600000000.0,-37.47710233300188,7.633217208690079,YES,1.3
27.24960732460022,1600000000.0,-37.48193477255071,7.633449282791949,YES,1.3
27.798230409622192,1600000000.0,-37.4813989466167,7.63386597302873,YES,1.3
28.289240837097168,1600000000.0,-37.509026720927835,7.63830536315508,YES,1.3
28.870262622833252,1600000000.0,-37.53464216374519,7.644467824448094,YES,1.3
29.422797679901123,1600000000.0,-37.51704704295399,7.654322135122536,YES,1.3
30.03518581390381,1600000000.0,-37.42619773020118,7.650318839749609,YES,1.3
30.578885316848755,1600000000.0,-37.42937842966184,7.646978792347587,YES,1.3
31.14089322090149,1600000000.0,-37.44760359068769,7.649910273480501,YES,1.3
31.70952033996582,1600000000.0,-37.43830000856588,7.652957899880479,YES,1.3
32.27673888206482,1600000000.0,-37.41211809568219,7.655842791964896,YES,1.3
32.850518226623535,1600000000.0,-37.4387619385986,7.645580617759485,YES,1.3
33.40515327453613,1600000000.0,-37.43085936468242,7.64658589415202,YES,1.3
33.95198345184326,1600000000.0,-37.445640035494925,7.647267466639519,YES,1.3
34.483365535736084,1600000000.0,-37.412549338438154,7.651008681181429,YES,1.3
35.04275918006897,1600000000.0,-37.3870854555703,7.643185321684783,YES,1.3
35.588032245635986,1600000000.0,-37.377861104215,7.651529791102758,YES,1.3
36.13304162025452,1600000000.0,-37.82571544288559,7.57920806014075,YES,1.3
36.6741201877594,1600000000.0,-38.11449775973554,7.600789537799542,YES,1.3
37.211443185806274,1600000000.0,-41.70188524485915,7.893395718606944,YES,1.3
37.75012516975403,1600000000.0,-43.334877806844936,8.392924152237152,YES,1.3
38.299171924591064,1600000000.0,-40.59738550250819,8.03753737580016,YES,1.3
38.83160591125488,1600000000.0,-42.012179983051404,7.945389504233913,YES,1.3
39.36143517494202,1600000000.0,-41.92416967568857,8.12807103866055,YES,1.3
39.90698838233948,1600000000.0,-47.202281048451546,8.69185929252179,YES,1.3
40.44021821022034,1600000000.0,-44.69584505368141,7.997196485782602,YES,1.3
40.97360014915466,1600000000.0,-41.206381426378364,8.005915070917693,YES,1.3
41.499887228012085,1600000000.0,-40.90772037785673,7.928474552789155,YES,1.3
42.042784452438354,1600000000.0,-41.72722614325734,8.354037386084155,YES,1.3
42.589678049087524,1600000000.0,-41.386727889487986,7.778797896245036,YES,1.3
43.1364631652832,1600000000.0,-41.721775116305224,7.542951651087407,YES,1.3
43.67702126502991,1600000000.0,-41.60871118921968,7.64386203840596,YES,1.3
44.216598987579346,1600000000.0,-40.99816629195338,7.722951828260067,YES,1.3
44.754570960998535,1600000000.0,-40.52295391431974,7.729251517835458,YES,1.3
45.29960370063782,1600000000.0,-40.639533172021004,7.766679037938972,YES,1.3
45.83926010131836,1600000000.0,-40.589703529511816,7.760308666504489,YES,1.3
46.392778635025024,1600000000.0,-40.5916031420072,7.747377996910208,YES,1.3
46.933746576309204,1600000000.0,-40.813156588176525,7.732546605913949,YES,1.3
47.500123500823975,1600000000.0,-40.71133084607065,7.7395948680108395,YES,1.3
48.04656362533569,1600000000.0,-40.70705642427686,7.759501306522225,YES,1.3
48.58618497848511,1600000000.0,-40.690832942862166,7.760874873815954,YES,1.3
49.122567892074585,1600000000.0,-40.636082906894146,7.746544944344804,YES,1.3
49.660592555999756,1600000000.0,-40.9380587252533,7.763762328441008,YES,1.3
50.19747543334961,1600000000.0,-40.910548676882385,7.5336831479380635,YES,1.3
50.742440938949585,1600000000.0,-38.93641075967901,7.443210014673063,YES,1.3
51.32163953781128,1600000000.0,-39.20144662002298,7.396138709806019,YES,1.3
51.85837984085083,1600000000.0,-39.41769868692659,7.400953126920361,YES,1.3
52.40483522415161,1600000000.0,-39.63008973380313,7.334566565443323,YES,1.3
52.955796241760254,1600000000.0,-40.018567241447734,7.5992962583999155,YES,1.3
53.49326014518738,1600000000.0,-40.295434609374745,7.6301026950207484,YES,1.3
53.962265729904175,1600000000.0,-40.12790652365176,7.276808119455589,YES,1.3
54.453864097595215,1600000000.0,-40.028264567183484,7.105105707306239,YES,1.3
54.99228811264038,1600000000.0,-39.99178940943039,7.192831372344712,YES,1.3
55.47896981239319,1600000000.0,-39.96908138139521,7.210422420160852,YES,1.3
56.03843855857849,1600000000.0,-40.00624768489571,7.203230729543309,YES,1.3
56.60734534263611,1600000000.0,-39.97845241004407,7.196792884052008,YES,1.3
57.08009600639343,1600000000.0,-39.95831961621488,7.2057331933139315,YES,1.3
57.611443281173706,1600000000.0,-40.03701382156485,7.228023067519659,YES,1.3
58.09113168716431,1600000000.0,-39.96535891189758,7.23057572854189,YES,1.3
58.60044574737549,1600000000.0,-39.99354268223871,7.214295851148335,YES,1.3
59.10313940048218,1600000000.0,-39.959460480919866,7.211203580328771,YES,1.3
59.59198570251465,1600000000.0,-40.01127015110111,7.258986097875434,YES,1.3
60.05401301383972,1600000000.0,-39.99460176265538,7.2940729560281445,YES,1.3
60.52378821372986,1600000000.0,-40.01852214646352,7.331835353813172,YES,1.3
60.99698305130005,1600000000.0,-40.09654022675022,7.344798656068205,YES,1.3
61.56448841094971,1600000000.0,-39.70758338159779,7.532245825866861,YES,1.3
62.138636112213135,1600000000.0,-40.0231144973786,7.23064220982037,YES,1.3
62.67691206932068,1600000000.0,-40.39488973601316,8.310769405757329,YES,1.3
63.22106432914734,1600000000.0,-40.20895300551938,7.7510275204393375,YES,1.3
63.75396227836609,1600000000.0,-40.14285729412056,7.604653289467048,YES,1.3
64.29386019706726,1600000000.0,-40.52674071752159,7.242773262266089,YES,1.3
64.8444561958313,1600000000.0,-40.25507075386817,6.764913349226975,YES,1.3
65.38509035110474,1600000000.0,-40.34543113108863,6.81334338029454,YES,1.3
65.94332766532898,1600000000.0,-40.36418357000037,6.795134233419919,YES,1.3
66.4859938621521,1600000000.0,-40.338047256145174,6.813747778473677,YES,1.3
67.02467370033264,1600000000.0,-40.39477607706445,6.78955091723135,YES,1.3
67.5717556476593,1600000000.0,-40.40207473743878,7.0950455033380875,YES,1.3
68.10513520240784,1600000000.0,-40.51979291244603,7.06715643192843,YES,1.3
68.64522624015808,1600000000.0,-40.73541701593523,7.263354633118447,YES,1.3
69.18509554862976,1600000000.0,-40.52988810986703,7.21139722234728,YES,1.3
69.72162461280823,1600000000.0,-39.79700181326993,6.944745621083542,YES,1.3
70.29320740699768,1600000000.0,-40.93605194013563,7.41230665530208,YES,1.3
70.84139204025269,1600000000.0,-40.68018046271565,6.934187192266611,YES,1.3
71.38909220695496,1600000000.0,-40.65769499954211,7.0115295216065725,YES,1.3
71.94612908363342,1600000000.0,-40.80775259407801,6.999233408914996,YES,1.3
72.48077988624573,1600000000.0,-40.75624017407678,6.945209339706359,YES,1.3
72.98470163345337,1600000000.0,-40.61991985563055,6.997778168598895,YES,1.3
73.50160598754883,1600000000.0,-40.68104610181067,6.891209343594231,YES,1.3
73.98863053321838,1600000000.0,-40.716377137428935,6.940532663256822,YES,1.3
74.53792142868042,1600000000.0,-40.69306118403897,6.998601774577783,YES,1.3
75.1108386516571,1600000000.0,-40.46851275668544,6.801998609216847,YES,1.3
75.59569501876831,1600000000.0,-40.586696542734884,6.964999212221022,YES,1.3
76.16793489456177,1600000000.0,-40.23555574980285,7.011876927321849,YES,1.3
76.77210116386414,1600000000.0,-40.22209576279319,7.010977482920478,YES,1.3
77.30657649040222,1600000000.0,-40.26841584138496,7.0385267193551835,YES,1.3
77.88201308250427,1600000000.0,-40.2107922890726,7.025317348562099,YES,1.3
78.4383704662323,1600000000.0,-40.18269021076786,7.009001033093777,YES,1.3
79.0176637172699,1600000000.0,-40.08950054671839,7.0081832126970065,YES,1.3
79.58302974700928,1600000000.0,-40.11081703568873,7.020364841068465,YES,1.3
80.13395476341248,1600000000.0,-40.08915883699649,7.056039375325211,YES,1.3
80.6873710155487,1600000000.0,-40.066883076613955,7.026015822253381,YES,1.3
81.18900299072266,1600000000.0,-40.019808668818115,7.0166495679138094,YES,1.3
81.74556159973145,1600000000.0,-40.092628738092856,7.019615661591281,YES,1.3
82.29461026191711,1600000000.0,-40.0149314976618,7.036312156430716,YES,1.3
82.8525378704071,1600000000.0,-39.98811533575106,7.037819755528085,YES,1.3
83.40784692764282,1600000000.0,-40.0000733928392,6.996313946896064,YES,1.3
83.91629576683044,1600000000.0,-39.99029481945118,7.017209220852117,YES,1.3
84.43846154212952,1600000000.0,-39.97964958808224,7.008619900391768,YES,1.3
84.99877882003784,1600000000.0,-39.985010143970456,7.037258004149951,YES,1.3
85.5096755027771,1600000000.0,-40.00245697270764,7.05320453977789,YES,1.3
86.01638388633728,1600000000.0,-39.97851347875594,7.02580034773926,YES,1.3
86.57460260391235,1600000000.0,-39.94744392782895,7.017430114057954,YES,1.3
87.04394555091858,1600000000.0,-39.958348457698484,7.00719362768986,YES,1.3
87.50314235687256,1600000000.0,-39.93652053123348,7.039875276891134,YES,1.3
87.99971199035645,1600000000.0,-39.98690974756964,7.065670844774644,YES,1.3
88.46513938903809,1600000000.0,-39.98507345536095,7.039670838384184,YES,1.3
88.92409086227417,1600000000.0,-39.96525082401868,7.018857655553462,YES,1.3
89.40271282196045,1600000000.0,-39.953925012575326,7.014435182927096,YES,1.3
89.87830209732056,1600000000.0,-39.89508117276245,7.027666139886424,YES,1.3
90.3431031703949,1600000000.0,-39.92876741727211,7.0379348569643465,YES,1.3
90.80848288536072,1600000000.0,-39.75568518105651,7.046593295202953,YES,1.3
91.26742625236511,1600000000.0,-39.52144644949151,7.01098566780826,YES,1.3
91.70676827430725,1600000000.0,-39.70999085241419,7.008038614606749,YES,1.3
92.14799427986145,1600000000.0,-39.59529082800155,7.006631919580607,YES,1.3
92.58624696731567,1600000000.0,-39.76915635491969,6.9980243235357555,YES,1.3
93.01889991760254,1600000000.0,-39.83183909741904,7.023306543576981,YES,1.3
93.45967888832092,1600000000.0,-39.9603959809908,7.036881953861589,YES,1.3
93.89145708084106,1600000000.0,-40.26022431032221,7.0589800781821355,YES,1.3
94.33577013015747,1600000000.0,-40.31886377051496,7.0470026433969855,YES,1.3
94.77013778686523,1600000000.0,-40.37047553246153,7.026925711489936,YES,1.3
95.20687532424927,1600000000.0,-40.43831238225497,7.034369974347136,YES,1.3
95.65146851539612,1600000000.0,-40.4057499208941,7.060352269231476,YES,1.3
96.09042525291443,1600000000.0,-40.43243958544413,7.051544259958731,YES,1.3
96.53674554824829,1600000000.0,-40.437654199258006,7.030130179662061,YES,1.3
96.97630143165588,1600000000.0,-40.374953147185934,7.037609187484533,YES,1.3
97.43273496627808,1600000000.0,-40.449939667937784,7.022295151613248,YES,1.3
97.88642382621765,1600000000.0,-40.42003871517692,7.052107684594803,YES,1.3
98.34357166290283,1600000000.0,-40.48039709741428,7.073024568377678,YES,1.3
98.85664367675781,1600000000.0,-40.44248074657087,7.040785918639204,YES,1.3
99.31012296676636,1600000000.0,-40.448886377840864,7.029840954613279,YES,1.3
99.74675226211548,1600000000.0,-40.42827981177023,7.027741024369114,YES,1.3
100.23152136802673,1600000000.0,-40.432983308166975,7.030872298758034,YES,1.3
100.68019986152649,1600000000.0,-40.48042897632396,7.048694944782493,YES,1.3
101.1122624874115,1600000000.0,-40.47728287347788,7.067872668781716,YES,1.3
101.56524205207825,1600000000.0,-40.44874493081278,7.045835749048987,YES,1.3
102.0058102607727,1600000000.0,-40.45166183508777,7.034503102476407,YES,1.3
102.4517662525177,1600000000.0,-40.41677226659539,7.038293197302892,YES,1.3
102.89410901069641,1600000000.0,-40.44089477814563,7.029302897638706,YES,1.3
103.32802700996399,1600000000.0,-40.48045986516865,7.037848604232879,YES,1.3
103.77254104614258,1600000000.0,-40.559836925616125,7.034911418689126,YES,1.3
104.20724987983704,1600000000.0,-40.46619883951561,7.023175017167547,YES,1.3
104.64552688598633,1600000000.0,-40.509505213495856,6.999897072226483,YES,1.3
105.08316969871521,1600000000.0,-40.521515407902996,7.001975631784944,YES,1.3
105.51191663742065,1600000000.0,-40.51111883724257,6.996953686365185,YES,1.3
105.94467449188232,1600000000.0,-40.57640399612154,7.0181920643807505,YES,1.3
106.37357449531555,1600000000.0,-40.461598824503476,7.039481608638011,YES,1.3
106.80767345428467,1600000000.0,-40.481942379277584,7.010940785679287,YES,1.3
107.23988080024719,1600000000.0,-40.5134017258105,6.998212989474963,YES,1.3
107.67503690719604,1600000000.0,-40.51825371313929,7.005702773227336,YES,1.3
108.11146092414856,1600000000.0,-40.467822712721535,7.003999224676405,YES,1.3
108.55274486541748,1600000000.0,-40.5086254460936,7.023983128884648,YES,1.3
109.06244325637817,1600000000.0,-40.52951638090347,7.024042284505434,YES,1.3
109.49749541282654,1600000000.0,-40.49465645595204,7.0257646330103,YES,1.3
109.928781747818,1600000000.0,-40.496392435280235,7.01126084521845,YES,1.3
110.47186541557312,1600000000.0,-40.5218190744214,6.995637108757408,YES,1.3
110.9105327129364,1600000000.0,-40.523968030467216,7.019649329760251,YES,1.3
111.35156655311584,1600000000.0,-40.55684153664164,7.050466529243123,YES,1.3
111.80219388008118,1600000000.0,-40.53877326294459,7.0284739792839535,YES,1.3
112.24314284324646,1600000000.0,-40.52910605668113,7.01925053788865,YES,1.3
112.68240880966187,1600000000.0,-40.49394542988321,7.014804950458993,YES,1.3
113.12239384651184,1600000000.0,-40.50502901648095,6.997389956189063,YES,1.3
113.55041456222534,1600000000.0,-40.49024671364081,7.009515822788513,YES,1.3
113.99980330467224,1600000000.0,-40.51950876735817,7.008879841125102,YES,1.3
114.43272638320923,1600000000.0,-40.535916452407854,6.993287734938134,YES,1.3
114.87104916572571,1600000000.0,-40.518348376308126,6.991482555399315,YES,1.3
115.31030321121216,1600000000.0,-40.379390006649274,7.057916184175282,YES,1.3
115.74880337715149,1600000000.0,-40.443445110441154,7.385535360853748,YES,1.3
116.17972564697266,1600000000.0,-40.42596671195457,7.351837877125671,YES,1.3
116.61235189437866,1600000000.0,-40.265676739483354,7.209091162962177,YES,1.3
117.08457112312317,1600000000.0,-39.81270232854775,7.028015818552311,YES,1.3
117.6207058429718,1600000000.0,-38.27085313773423,6.671862466585644,YES,1.3
118.06717848777771,1600000000.0,-37.6722730210261,6.809764340786076,YES,1.3
118.56149935722351,1600000000.0,-38.55536786029356,6.89042690016421,YES,1.3
119.07378220558167,1600000000.0,-38.95968007508913,6.891799004210304,YES,1.3
119.54474973678589,1600000000.0,-39.245425758149395,6.893444183682613,YES,1.3
120.05393648147583,1600000000.0,-39.31418357472633,6.892342118993674,YES,1.3
120.52777552604675,1600000000.0,-39.34485638120482,6.892738697920438,YES,1.3
120.98568820953369,1600000000.0,-39.36414256075771,6.883669089562494,YES,1.3
121.42038917541504,1600000000.0,-39.40420889870826,6.876429583136199,YES,1.3
121.84943151473999,1600000000.0,-39.41367827076742,6.878131974286704,YES,1.3
122.38888144493103,1600000000.0,-39.40432713712683,6.892287186332212,YES,1.3
122.8240578174591,1600000000.0,-39.42010332185355,6.894944681342822,YES,1.3
123.26817893981934,1600000000.0,-39.398872437800804,6.883036736553747,YES,1.3
123.69911360740662,1600000000.0,-39.443977338599026,6.871908712927252,YES,1.3
124.14350485801697,1600000000.0,-39.44641386299666,6.871994882203964,YES,1.3
124.58160448074341,1600000000.0,-39.43673983360612,6.882411001617621,YES,1.3
125.023601770401,1600000000.0,-39.44515899844335,6.88336750502315,YES,1.3
125.45862674713135,1600000000.0,-39.45330821486464,6.875433644208398,YES,1.3
125.8968403339386,1600000000.0,-39.889435701073246,7.345413176993199,YES,1.3
126.32865762710571,1600000000.0,-39.44871175202773,7.297756321267846,YES,1.3
126.76650762557983,1600000000.0,-38.5046584347206,7.576180392454049,YES,1.3
127.2095856666565,1600000000.0,-38.24423268014004,8.40928217573917,YES,1.3
127.64249968528748,1600000000.0,-38.47854959379073,7.764329783461003,YES,1.3
128.083500623703,1600000000.0,-38.16351970969976,8.2889895343642,YES,1.3
128.51330709457397,1600000000.0,-39.122873592556886,7.731827011478824,YES,1.3
128.94341349601746,1600000000.0,-40.1269924214144,7.41002657201455,YES,1.3
